
?       - alias for 'help'
base    - print or set address offset
bdinfo  - print Board Info structure
boot    - boot default, i.e., run 'bootcmd'
bootd   - boot default, i.e., run 'bootcmd'
bootefi - Boots an EFI payload from memory
bootelf - Boot from an ELF image in memory
booti   - boot arm64 Linux Image image from memory
bootm   - boot application image from memory
bootp   - boot image via network using BOOTP/TFTP protocol
bootvx  - Boot vxWorks from an ELF image
bootz   - boot Linux zImage image from memory
cmp     - memory compare
coninfo - print console devices and information
cp      - memory copy
crc32   - checksum calculation
dhcp    - boot image via network using DHCP/TFTP protocol
dm      - Driver model low level access
echo    - echo args to console
editenv - edit environment variable
env     - environment handling commands
erase   - erase FLASH memory
ethsw   - Ethernet l2 switch commands
exit    - exit script
ext2load- load binary file from a Ext2 filesystem
ext2ls  - list files in a directory (default /)
ext4load- load binary file from a Ext4 filesystem
ext4ls  - list files in a directory (default /)
ext4size- determine a file's size
false   - do nothing, unsuccessfully
fastboot- use USB Fastboot protocol
fatinfo - print information about filesystem
fatload - load binary file from a dos filesystem
fatls   - list files in a directory (default /)
fatsize - determine a file's size
fatwrite- write file into a dos filesystem
fdt     - flattened device tree utility commands
flinfo  - print FLASH memory information
fstype  - Look up a filesystem type
go      - start application at address 'addr'
gpio    - query and control gpio pins
gpt     - GUID Partition Table
help    - print command description/usage
iminfo  - print header information for application image
imxtract- extract a part of a multi-image
itest   - return true/false on integer compare
load    - load binary file from a filesystem
loadb   - load binary file over serial line (kermit mode)
loads   - load S-Record file over serial line
loadx   - load binary file over serial line (xmodem mode)
loady   - load binary file over serial line (ymodem mode)
loop    - infinite loop on address range
ls      - list files in a directory (default /)
md      - memory display
mdio    - MDIO utility commands
mii     - MII utility commands
mm      - memory modify (auto-incrementing address)
mmc     - MMC sub system
mmcinfo - display MMC info
mw      - memory write (fill)
nfs     - boot image via network using NFS protocol
nm      - memory modify (constant address)
part    - disk partition related commands
ping    - send ICMP ECHO_REQUEST to network host
printenv- print environment variables
protect - enable or disable FLASH write protection
pxe     - commands to get and boot from pxe files
reset   - Perform RESET of the CPU
run     - run commands in an environment variable
save    - save file to a filesystem
saveenv - save environment variables to persistent storage
setenv  - set environment variables
sf      - SPI flash sub-system
showvar - print local hushshell variables
size    - determine a file's size
sleep   - delay execution for some time
source  - run script from memory
sspi    - SPI utility command
sysboot - command to get and boot from syslinux files
test    - minimal test like /bin/sh
tftpboot- boot image via network using TFTP protocol
time    - run commands and summarize execution time
true    - do nothing, successfully
ums     - Use the UMS [USB Mass Storage]
usb     - USB sub-system
usbboot - boot from USB device
version - print monitor, compiler and linker version
=> printenv
arch=arm
baudrate=1500000
board=rock64_rk3328
board_name=rock64_rk3328
boot_a_script=load ${devtype} ${devnum}:${distro_bootpart} ${scriptaddr} ${prefix}${script}; source ${scriptaddr}
boot_efi_binary=load ${devtype} ${devnum}:${distro_bootpart} ${kernel_addr_r} efi/boot/bootaa64.efi; if fdt addr ${fdt_addr_r}; then bootefi ${kernel_addr_r} ${fdt_addr_r};else bootefi ${kernel_addr_r} ${fdtcontroladdr};fi
boot_extlinux=sysboot ${devtype} ${devnum}:${distro_bootpart} any ${scriptaddr} ${prefix}extlinux/extlinux.conf
boot_mode=normal
boot_net_usb_start=usb start
boot_prefixes=/ /boot/
boot_script_dhcp=boot.scr.uimg
boot_scripts=boot.scr.uimg boot.scr
boot_targets=mmc0 mmc1 usb0 pxe dhcp 
bootcmd=run distro_bootcmd
bootcmd_dhcp=run boot_net_usb_start; if dhcp ${scriptaddr} ${boot_script_dhcp}; then source ${scriptaddr}; fi;setenv efi_fdtfile ${fdtfile}; setenv efi_old_vci ${bootp_vci};setenv efi_old_arch ${bootp_arch};setenv bootp_vci PXEClient:Arch:00011:UNDI:003000;setenv bootp_arch 0xb;if dhcp ${kernel_addr_r}; then tftpboot ${fdt_addr_r} dtb/${efi_fdtfile};if fdt addr ${fdt_addr_r}; then bootefi ${kernel_addr_r} ${fdt_addr_r}; else bootefi ${kernel_addr_r} ${fdtcontroladdr};fi;fi;setenv bootp_vci ${efi_old_vci};setenv bootp_arch ${efi_old_arch};setenv efi_fdtfile;setenv efi_old_arch;setenv efi_old_vci;
bootcmd_mmc0=setenv devnum 0; run mmc_boot
bootcmd_mmc1=setenv devnum 1; run mmc_boot
bootcmd_pxe=run boot_net_usb_start; dhcp; if pxe get; then pxe boot; fi
bootcmd_usb0=setenv devnum 0; run usb_boot
bootdelay=2
cpu=armv8
cpuid#=55524b5030393030330000000017111d
distro_bootcmd=for target in ${boot_targets}; do run bootcmd_${target}; done
efi_dtb_prefixes=/ /dtb/ /dtb/current/
eth1addr=82:1d:da:1f:fd:51
ethaddr=82:1d:da:1f:fd:31
fdt_addr_r=0x01f00000
fdtcontroladdr=fcf1eb70
fdtfile=rockchip/rk3328-rock64.dtb
kernel_addr_r=0x02000000
load_efi_dtb=load ${devtype} ${devnum}:${distro_bootpart} ${fdt_addr_r} ${prefix}${efi_fdtfile}
mmc_boot=if mmc dev ${devnum}; then setenv devtype mmc; run scan_dev_for_boot_part; fi
partitions=uuid_disk=${uuid_gpt_disk};name=loader1,start=32K,size=4000K,uuid=${uuid_gpt_loader1};name=reserved1,size=64K,uuid=${uuid_gpt_reserved1};name=reserved2,size=4M,uuid=${uuid_gpt_reserved2};name=loader2,size=4MB,uuid=${uuid_gpt_loader2};name=atf,size=4M,uuid=${uuid_gpt_atf};name=boot,size=112M,bootable,uuid=${uuid_gpt_boot};name=rootfs,size=-,uuid=B921B045-1DF0-41C3-AF44-4C6F280D3FAE;
pxefile_addr_r=0x00600000
ramdisk_addr_r=0x04000000
scan_dev_for_boot=echo Scanning ${devtype} ${devnum}:${distro_bootpart}...; for prefix in ${boot_prefixes}; do run scan_dev_for_extlinux; run scan_dev_for_scripts; done;run scan_dev_for_efi;
scan_dev_for_boot_part=part list ${devtype} ${devnum} -bootable devplist; env exists devplist || setenv devplist 1; for distro_bootpart in ${devplist}; do if fstype ${devtype} ${devnum}:${distro_bootpart} bootfstype; then run scan_dev_for_boot; fi; done
scan_dev_for_efi=setenv efi_fdtfile ${fdtfile}; for prefix in ${efi_dtb_prefixes}; do if test -e ${devtype} ${devnum}:${distro_bootpart} ${prefix}${efi_fdtfile}; then run load_efi_dtb; fi;done;if test -e ${devtype} ${devnum}:${distro_bootpart} efi/boot/bootaa64.efi; then echo Found EFI removable media binary efi/boot/bootaa64.efi; run boot_efi_binary; echo EFI LOAD FAILED: continuing...; fi; setenv efi_fdtfile
scan_dev_for_extlinux=if test -e ${devtype} ${devnum}:${distro_bootpart} ${prefix}extlinux/extlinux.conf; then echo Found ${prefix}extlinux/extlinux.conf; run boot_extlinux; echo SCRIPT FAILED: continuing...; fi
scan_dev_for_scripts=for script in ${boot_scripts}; do if test -e ${devtype} ${devnum}:${distro_bootpart} ${prefix}${script}; then echo Found U-Boot script ${prefix}${script}; run boot_a_script; echo SCRIPT FAILED: continuing...; fi; done
scriptaddr=0x00500000
serial#=2ddb74eed0071ba
soc=rockchip
stderr=serial@ff130000
stdin=serial@ff130000
stdout=serial@ff130000
usb_boot=usb start; if usb dev ${devnum}; then setenv devtype usb; run scan_dev_for_boot_part; fi
vendor=rockchip

Environment size: 4141/8188 bytes
=> ls
ls - list files in a directory (default /)

Usage:
ls <interface> [<dev[:part]> [directory]]
    - List files in directory 'directory' of partition 'part' on
      device type 'interface' instance 'dev'.
=> he
?       - alias for 'help'
base    - print or set address offset
bdinfo  - print Board Info structure
boot    - boot default, i.e., run 'bootcmd'
bootd   - boot default, i.e., run 'bootcmd'
bootefi - Boots an EFI payload from memory
bootelf - Boot from an ELF image in memory
booti   - boot arm64 Linux Image image from memory
bootm   - boot application image from memory
bootp   - boot image via network using BOOTP/TFTP protocol
bootvx  - Boot vxWorks from an ELF image
bootz   - boot Linux zImage image from memory
cmp     - memory compare
coninfo - print console devices and information
cp      - memory copy
crc32   - checksum calculation
dhcp    - boot image via network using DHCP/TFTP protocol
dm      - Driver model low level access
echo    - echo args to console
editenv - edit environment variable
env     - environment handling commands
erase   - erase FLASH memory
ethsw   - Ethernet l2 switch commands
exit    - exit script
ext2load- load binary file from a Ext2 filesystem
ext2ls  - list files in a directory (default /)
ext4load- load binary file from a Ext4 filesystem
ext4ls  - list files in a directory (default /)
ext4size- determine a file's size
false   - do nothing, unsuccessfully
fastboot- use USB Fastboot protocol
fatinfo - print information about filesystem
fatload - load binary file from a dos filesystem
fatls   - list files in a directory (default /)
fatsize - determine a file's size
fatwrite- write file into a dos filesystem
fdt     - flattened device tree utility commands
flinfo  - print FLASH memory information
fstype  - Look up a filesystem type
go      - start application at address 'addr'
gpio    - query and control gpio pins
gpt     - GUID Partition Table
help    - print command description/usage
iminfo  - print header information for application image
imxtract- extract a part of a multi-image
itest   - return true/false on integer compare
load    - load binary file from a filesystem
loadb   - load binary file over serial line (kermit mode)
loads   - load S-Record file over serial line
loadx   - load binary file over serial line (xmodem mode)
loady   - load binary file over serial line (ymodem mode)
loop    - infinite loop on address range
ls      - list files in a directory (default /)
md      - memory display
mdio    - MDIO utility commands
mii     - MII utility commands
mm      - memory modify (auto-incrementing address)
mmc     - MMC sub system
mmcinfo - display MMC info
mw      - memory write (fill)
nfs     - boot image via network using NFS protocol
nm      - memory modify (constant address)
part    - disk partition related commands
ping    - send ICMP ECHO_REQUEST to network host
printenv- print environment variables
protect - enable or disable FLASH write protection
pxe     - commands to get and boot from pxe files
reset   - Perform RESET of the CPU
run     - run commands in an environment variable
save    - save file to a filesystem
saveenv - save environment variables to persistent storage
setenv  - set environment variables
sf      - SPI flash sub-system
showvar - print local hushshell variables
size    - determine a file's size
sleep   - delay execution for some time
source  - run script from memory
sspi    - SPI utility command
sysboot - command to get and boot from syslinux files
test    - minimal test like /bin/sh
tftpboot- boot image via network using TFTP protocol
time    - run commands and summarize execution time
true    - do nothing, successfully
ums     - Use the UMS [USB Mass Storage]
usb     - USB sub-system
usbboot - boot from USB device
version - print monitor, compiler and linker version
=> 
?       - alias for 'help'
base    - print or set address offset
bdinfo  - print Board Info structure
boot    - boot default, i.e., run 'bootcmd'
bootd   - boot default, i.e., run 'bootcmd'
bootefi - Boots an EFI payload from memory
bootelf - Boot from an ELF image in memory
booti   - boot arm64 Linux Image image from memory
bootm   - boot application image from memory
bootp   - boot image via network using BOOTP/TFTP protocol
bootvx  - Boot vxWorks from an ELF image
bootz   - boot Linux zImage image from memory
cmp     - memory compare
coninfo - print console devices and information
cp      - memory copy
crc32   - checksum calculation
dhcp    - boot image via network using DHCP/TFTP protocol
dm      - Driver model low level access
echo    - echo args to console
editenv - edit environment variable
env     - environment handling commands
erase   - erase FLASH memory
ethsw   - Ethernet l2 switch commands
exit    - exit script
ext2load- load binary file from a Ext2 filesystem
ext2ls  - list files in a directory (default /)
ext4load- load binary file from a Ext4 filesystem
ext4ls  - list files in a directory (default /)
ext4size- determine a file's size
false   - do nothing, unsuccessfully
fastboot- use USB Fastboot protocol
fatinfo - print information about filesystem
fatload - load binary file from a dos filesystem
fatls   - list files in a directory (default /)
fatsize - determine a file's size
fatwrite- write file into a dos filesystem
fdt     - flattened device tree utility commands
flinfo  - print FLASH memory information
fstype  - Look up a filesystem type
go      - start application at address 'addr'
gpio    - query and control gpio pins
gpt     - GUID Partition Table
help    - print command description/usage
iminfo  - print header information for application image
imxtract- extract a part of a multi-image
itest   - return true/false on integer compare
load    - load binary file from a filesystem
loadb   - load binary file over serial line (kermit mode)
loads   - load S-Record file over serial line
loadx   - load binary file over serial line (xmodem mode)
loady   - load binary file over serial line (ymodem mode)
loop    - infinite loop on address range
ls      - list files in a directory (default /)
md      - memory display
mdio    - MDIO utility commands
mii     - MII utility commands
mm      - memory modify (auto-incrementing address)
mmc     - MMC sub system
mmcinfo - display MMC info
mw      - memory write (fill)
nfs     - boot image via network using NFS protocol
nm      - memory modify (constant address)
part    - disk partition related commands
ping    - send ICMP ECHO_REQUEST to network host
printenv- print environment variables
protect - enable or disable FLASH write protection
pxe     - commands to get and boot from pxe files
reset   - Perform RESET of the CPU
run     - run commands in an environment variable
save    - save file to a filesystem
saveenv - save environment variables to persistent storage
setenv  - set environment variables
sf      - SPI flash sub-system
showvar - print local hushshell variables
size    - determine a file's size
sleep   - delay execution for some time
source  - run script from memory
sspi    - SPI utility command
sysboot - command to get and boot from syslinux files
test    - minimal test like /bin/sh
tftpboot- boot image via network using TFTP protocol
time    - run commands and summarize execution time
true    - do nothing, successfully
ums     - Use the UMS [USB Mass Storage]
usb     - USB sub-system
usbboot - boot from USB device
version - print monitor, compiler and linker version
=> mii info
PHY 0x00: OUI = 0x0732, Model = 0x11, Rev = 0x06, 100baseT, HDX
PHY 0x01: OUI = 0x0732, Model = 0x11, Rev = 0x06, 100baseT, HDX
=> printenv
arch=arm
baudrate=1500000
board=rock64_rk3328
board_name=rock64_rk3328
boot_a_script=load ${devtype} ${devnum}:${distro_bootpart} ${scriptaddr} ${prefix}${script}; source ${scriptaddr}
boot_efi_binary=load ${devtype} ${devnum}:${distro_bootpart} ${kernel_addr_r} efi/boot/bootaa64.efi; if fdt addr ${fdt_addr_r}; then bootefi ${kernel_addr_r} ${fdt_addr_r};else bootefi ${kernel_addr_r} ${fdtcontroladdr};fi
boot_extlinux=sysboot ${devtype} ${devnum}:${distro_bootpart} any ${scriptaddr} ${prefix}extlinux/extlinux.conf
boot_mode=normal
boot_net_usb_start=usb start
boot_prefixes=/ /boot/
boot_script_dhcp=boot.scr.uimg
boot_scripts=boot.scr.uimg boot.scr
boot_targets=mmc0 mmc1 usb0 pxe dhcp 
bootcmd=run distro_bootcmd
bootcmd_dhcp=run boot_net_usb_start; if dhcp ${scriptaddr} ${boot_script_dhcp}; then source ${scriptaddr}; fi;setenv efi_fdtfile ${fdtfile}; setenv efi_old_vci ${bootp_vci};setenv efi_old_arch ${bootp_arch};setenv bootp_vci PXEClient:Arch:00011:UNDI:003000;setenv bootp_arch 0xb;if dhcp ${kernel_addr_r}; then tftpboot ${fdt_addr_r} dtb/${efi_fdtfile};if fdt addr ${fdt_addr_r}; then bootefi ${kernel_addr_r} ${fdt_addr_r}; else bootefi ${kernel_addr_r} ${fdtcontroladdr};fi;fi;setenv bootp_vci ${efi_old_vci};setenv bootp_arch ${efi_old_arch};setenv efi_fdtfile;setenv efi_old_arch;setenv efi_old_vci;
bootcmd_mmc0=setenv devnum 0; run mmc_boot
bootcmd_mmc1=setenv devnum 1; run mmc_boot
bootcmd_pxe=run boot_net_usb_start; dhcp; if pxe get; then pxe boot; fi
bootcmd_usb0=setenv devnum 0; run usb_boot
bootdelay=2
cpu=armv8
cpuid#=55524b5030393030330000000017111d
distro_bootcmd=for target in ${boot_targets}; do run bootcmd_${target}; done
efi_dtb_prefixes=/ /dtb/ /dtb/current/
eth1addr=82:1d:da:1f:fd:51
ethaddr=82:1d:da:1f:fd:31
fdt_addr_r=0x01f00000
fdtcontroladdr=fcf1eb70
fdtfile=rockchip/rk3328-rock64.dtb
kernel_addr_r=0x02000000
load_efi_dtb=load ${devtype} ${devnum}:${distro_bootpart} ${fdt_addr_r} ${prefix}${efi_fdtfile}
mmc_boot=if mmc dev ${devnum}; then setenv devtype mmc; run scan_dev_for_boot_part; fi
partitions=uuid_disk=${uuid_gpt_disk};name=loader1,start=32K,size=4000K,uuid=${uuid_gpt_loader1};name=reserved1,size=64K,uuid=${uuid_gpt_reserved1};name=reserved2,size=4M,uuid=${uuid_gpt_reserved2};name=loader2,size=4MB,uuid=${uuid_gpt_loader2};name=atf,size=4M,uuid=${uuid_gpt_atf};name=boot,size=112M,bootable,uuid=${uuid_gpt_boot};name=rootfs,size=-,uuid=B921B045-1DF0-41C3-AF44-4C6F280D3FAE;
pxefile_addr_r=0x00600000
ramdisk_addr_r=0x04000000
scan_dev_for_boot=echo Scanning ${devtype} ${devnum}:${distro_bootpart}...; for prefix in ${boot_prefixes}; do run scan_dev_for_extlinux; run scan_dev_for_scripts; done;run scan_dev_for_efi;
scan_dev_for_boot_part=part list ${devtype} ${devnum} -bootable devplist; env exists devplist || setenv devplist 1; for distro_bootpart in ${devplist}; do if fstype ${devtype} ${devnum}:${distro_bootpart} bootfstype; then run scan_dev_for_boot; fi; done
scan_dev_for_efi=setenv efi_fdtfile ${fdtfile}; for prefix in ${efi_dtb_prefixes}; do if test -e ${devtype} ${devnum}:${distro_bootpart} ${prefix}${efi_fdtfile}; then run load_efi_dtb; fi;done;if test -e ${devtype} ${devnum}:${distro_bootpart} efi/boot/bootaa64.efi; then echo Found EFI removable media binary efi/boot/bootaa64.efi; run boot_efi_binary; echo EFI LOAD FAILED: continuing...; fi; setenv efi_fdtfile
scan_dev_for_extlinux=if test -e ${devtype} ${devnum}:${distro_bootpart} ${prefix}extlinux/extlinux.conf; then echo Found ${prefix}extlinux/extlinux.conf; run boot_extlinux; echo SCRIPT FAILED: continuing...; fi
scan_dev_for_scripts=for script in ${boot_scripts}; do if test -e ${devtype} ${devnum}:${distro_bootpart} ${prefix}${script}; then echo Found U-Boot script ${prefix}${script}; run boot_a_script; echo SCRIPT FAILED: continuing...; fi; done
scriptaddr=0x00500000
serial#=2ddb74eed0071ba
soc=rockchip
stderr=serial@ff130000
stdin=serial@ff130000
stdout=serial@ff130000
usb_boot=usb start; if usb dev ${devnum}; then setenv devtype usb; run scan_dev_for_boot_part; fi
vendor=rockchip

Environment size: 4141/8188 bytes
=> mmcinfo
Card did not respond to voltage select!
mmc_init: -95, time 10
=> mmc dev
Card did not respond to voltage select!
mmc_init: -95, time 10
=> mmc dev 1
switch to partitions #0, OK
mmc1 is current device
=> mmc  info
Device: rksdmmc@ff500000
Manufacturer ID: 27
OEM: 5048
Name: SD16G 
Tran Speed: 50000000
Rd Block Len: 512
SD version 3.0
High Capacity: Yes
Capacity: 14.4 GiB
Bus Width: 4-bit
Erase Group Size: 512 Bytes
=> he mii
mii - MII utility commands

Usage:
mii device                            - list available devices
mii device <devname>                  - set current device
mii info   <addr>                     - display MII PHY info
mii read   <addr> <reg>               - read  MII PHY <addr> register <reg>
mii write  <addr> <reg> <data>        - write MII PHY <addr> register <reg>
mii modify <addr> <reg> <data> <mask> - modify MII PHY <addr> register <reg>
                                        updating bits identified in <mask>
mii dump   <addr> <reg>               - pretty-print <addr> <reg> (0-5 only)
Addr and/or reg may be ranges, e.g. 2-7.
=> mii dump
0.     (1040)                 -- PHY control register --
  (8000:0000) 0.15    =     0    reset
  (4000:0000) 0.14    =     0    loopback
  (2040:0040) 0. 6,13 =   b10    speed selection = 1000 Mbps
  (1000:1000) 0.12    =     1    A/N enable
  (0800:0000) 0.11    =     0    power-down
  (0400:0000) 0.10    =     0    isolate
  (0200:0000) 0. 9    =     0    restart A/N
  (0100:0000) 0. 8    =     0    duplex = half
  (0080:0000) 0. 7    =     0    collision test enable
  (003f:0000) 0. 5- 0 =     0    (reserved)


=> mii dump 0 5
5.     (40a1)                 -- Autonegotiation partner abilities register --
  (8000:0000) 5.15    =     0    next page able
  (4000:4000) 5.14    =     1    acknowledge
  (2000:0000) 5.13    =     0    remote fault
  (1000:0000) 5.12    =     0    (reserved)
  (0800:0000) 5.11    =     0    asymmetric pause able
  (0400:0000) 5.10    =     0    pause able
  (0200:0000) 5. 9    =     0    100BASE-T4 able
  (0100:0000) 5. 8    =     0    100BASE-X full duplex able
  (0080:0080) 5. 7    =     1    100BASE-TX able
  (0040:0000) 5. 6    =     0    10BASE-T full duplex able
  (0020:0020) 5. 5    =     1    10BASE-T able
  (001f:0001) 5. 4- 0 =     1    selector = IEEE 802.3


=> mii dev 1
No such device: 1
=> 
No such device: 1
=> mii dev
MII devices: 'ethernet@ff540000' 
Current device: 'ethernet@ff540000'
=> miiinfo
Unknown command 'miiinfo' - try 'help'
=> mii info
PHY 0x00: OUI = 0x0732, Model = 0x11, Rev = 0x06, 100baseT, HDX
PHY 0x01: OUI = 0x0732, Model = 0x11, Rev = 0x06, 100baseT, HDX
=> mii dump 0-1 0-5
0.     (1040)                 -- PHY control register --
  (8000:0000) 0.15    =     0    reset
  (4000:0000) 0.14    =     0    loopback
  (2040:0040) 0. 6,13 =   b10    speed selection = 1000 Mbps
  (1000:1000) 0.12    =     1    A/N enable
  (0800:0000) 0.11    =     0    power-down
  (0400:0000) 0.10    =     0    isolate
  (0200:0000) 0. 9    =     0    restart A/N
  (0100:0000) 0. 8    =     0    duplex = half
  (0080:0000) 0. 7    =     0    collision test enable
  (003f:0000) 0. 5- 0 =     0    (reserved)

1.     (79a9)                 -- PHY status register --
  (8000:0000) 1.15    =     0    100BASE-T4 able
  (4000:4000) 1.14    =     1    100BASE-X  full duplex able
  (2000:2000) 1.13    =     1    100BASE-X  half duplex able
  (1000:1000) 1.12    =     1    10 Mbps    full duplex able
  (0800:0800) 1.11    =     1    10 Mbps    half duplex able
  (0400:0000) 1.10    =     0    100BASE-T2 full duplex able
  (0200:0000) 1. 9    =     0    100BASE-T2 half duplex able
  (0100:0100) 1. 8    =     1    extended status
  (0080:0080) 1. 7    =     1    (reserved)
  (0040:0000) 1. 6    =     0    MF preamble suppression
  (0020:0020) 1. 5    =     1    A/N complete
  (0010:0000) 1. 4    =     0    remote fault
  (0008:0008) 1. 3    =     1    A/N able
  (0004:0000) 1. 2    =     0    link status
  (0002:0000) 1. 1    =     0    jabber detect
  (0001:0001) 1. 0    =     1    extended capabilities

2.     (001c)                 -- PHY ID 1 register --
  (ffff:001c) 2.15- 0 =    28    OUI portion

3.     (c916)                 -- PHY ID 2 register --
  (fc00:c800) 3.15-10 =    50    OUI portion
  (03f0:0110) 3. 9- 4 =    17    manufacturer part number
  (000f:0006) 3. 3- 0 =     6    manufacturer rev. number

4.     (01e1)                 -- Autonegotiation advertisement register --
  (8000:0000) 4.15    =     0    next page able
  (4000:0000) 4.14    =     0    (reserved)
  (2000:0000) 4.13    =     0    remote fault
  (1000:0000) 4.12    =     0    (reserved)
  (0800:0000) 4.11    =     0    asymmetric pause
  (0400:0000) 4.10    =     0    pause enable
  (0200:0000) 4. 9    =     0    100BASE-T4 able
  (0100:0100) 4. 8    =     1    100BASE-TX full duplex able
  (0080:0080) 4. 7    =     1    100BASE-TX able
  (0040:0040) 4. 6    =     1    10BASE-T   full duplex able
  (0020:0020) 4. 5    =     1    10BASE-T   able
  (001f:0001) 4. 4- 0 =     1    selector = IEEE 802.3

5.     (40a1)                 -- Autonegotiation partner abilities register --
  (8000:0000) 5.15    =     0    next page able
  (4000:4000) 5.14    =     1    acknowledge
  (2000:0000) 5.13    =     0    remote fault
  (1000:0000) 5.12    =     0    (reserved)
  (0800:0000) 5.11    =     0    asymmetric pause able
  (0400:0000) 5.10    =     0    pause able
  (0200:0000) 5. 9    =     0    100BASE-T4 able
  (0100:0000) 5. 8    =     0    100BASE-X full duplex able
  (0080:0080) 5. 7    =     1    100BASE-TX able
  (0040:0000) 5. 6    =     0    10BASE-T full duplex able
  (0020:0020) 5. 5    =     1    10BASE-T able
  (001f:0001) 5. 4- 0 =     1    selector = IEEE 802.3


0.     (1040)                 -- PHY control register --
  (8000:0000) 0.15    =     0    reset
  (4000:0000) 0.14    =     0    loopback
  (2040:0040) 0. 6,13 =   b10    speed selection = 1000 Mbps
  (1000:1000) 0.12    =     1    A/N enable
  (0800:0000) 0.11    =     0    power-down
  (0400:0000) 0.10    =     0    isolate
  (0200:0000) 0. 9    =     0    restart A/N
  (0100:0000) 0. 8    =     0    duplex = half
  (0080:0000) 0. 7    =     0    collision test enable
  (003f:0000) 0. 5- 0 =     0    (reserved)

1.     (79ad)                 -- PHY status register --
  (8000:0000) 1.15    =     0    100BASE-T4 able
  (4000:4000) 1.14    =     1    100BASE-X  full duplex able
  (2000:2000) 1.13    =     1    100BASE-X  half duplex able
  (1000:1000) 1.12    =     1    10 Mbps    full duplex able
  (0800:0800) 1.11    =     1    10 Mbps    half duplex able
  (0400:0000) 1.10    =     0    100BASE-T2 full duplex able
  (0200:0000) 1. 9    =     0    100BASE-T2 half duplex able
  (0100:0100) 1. 8    =     1    extended status
  (0080:0080) 1. 7    =     1    (reserved)
  (0040:0000) 1. 6    =     0    MF preamble suppression
  (0020:0020) 1. 5    =     1    A/N complete
  (0010:0000) 1. 4    =     0    remote fault
  (0008:0008) 1. 3    =     1    A/N able
  (0004:0004) 1. 2    =     1    link status
  (0002:0000) 1. 1    =     0    jabber detect
  (0001:0001) 1. 0    =     1    extended capabilities

2.     (001c)                 -- PHY ID 1 register --
  (ffff:001c) 2.15- 0 =    28    OUI portion

3.     (c916)                 -- PHY ID 2 register --
  (fc00:c800) 3.15-10 =    50    OUI portion
  (03f0:0110) 3. 9- 4 =    17    manufacturer part number
  (000f:0006) 3. 3- 0 =     6    manufacturer rev. number

4.     (01e1)                 -- Autonegotiation advertisement register --
  (8000:0000) 4.15    =     0    next page able
  (4000:0000) 4.14    =     0    (reserved)
  (2000:0000) 4.13    =     0    remote fault
  (1000:0000) 4.12    =     0    (reserved)
  (0800:0000) 4.11    =     0    asymmetric pause
  (0400:0000) 4.10    =     0    pause enable
  (0200:0000) 4. 9    =     0    100BASE-T4 able
  (0100:0100) 4. 8    =     1    100BASE-TX full duplex able
  (0080:0080) 4. 7    =     1    100BASE-TX able
  (0040:0040) 4. 6    =     1    10BASE-T   full duplex able
  (0020:0020) 4. 5    =     1    10BASE-T   able
  (001f:0001) 4. 4- 0 =     1    selector = IEEE 802.3

5.     (40a1)                 -- Autonegotiation partner abilities register --
  (8000:0000) 5.15    =     0    next page able
  (4000:4000) 5.14    =     1    acknowledge
  (2000:0000) 5.13    =     0    remote fault
  (1000:0000) 5.12    =     0    (reserved)
  (0800:0000) 5.11    =     0    asymmetric pause able
  (0400:0000) 5.10    =     0    pause able
  (0200:0000) 5. 9    =     0    100BASE-T4 able
  (0100:0000) 5. 8    =     0    100BASE-X full duplex able
  (0080:0080) 5. 7    =     1    100BASE-TX able
  (0040:0000) 5. 6    =     0    10BASE-T full duplex able
  (0020:0020) 5. 5    =     1    10BASE-T able
  (001f:0001) 5. 4- 0 =     1    selector = IEEE 802.3


=> 
0.     (1040)                 -- PHY control register --
  (8000:0000) 0.15    =     0    reset
  (4000:0000) 0.14    =     0    loopback
  (2040:0040) 0. 6,13 =   b10    speed selection = 1000 Mbps
  (1000:1000) 0.12    =     1    A/N enable
  (0800:0000) 0.11    =     0    power-down
  (0400:0000) 0.10    =     0    isolate
  (0200:0000) 0. 9    =     0    restart A/N
  (0100:0000) 0. 8    =     0    duplex = half
  (0080:0000) 0. 7    =     0    collision test enable
  (003f:0000) 0. 5- 0 =     0    (reserved)

1.     (79a9)                 -- PHY status register --
  (8000:0000) 1.15    =     0    100BASE-T4 able
  (4000:4000) 1.14    =     1    100BASE-X  full duplex able
  (2000:2000) 1.13    =     1    100BASE-X  half duplex able
  (1000:1000) 1.12    =     1    10 Mbps    full duplex able
  (0800:0800) 1.11    =     1    10 Mbps    half duplex able
  (0400:0000) 1.10    =     0    100BASE-T2 full duplex able
  (0200:0000) 1. 9    =     0    100BASE-T2 half duplex able
  (0100:0100) 1. 8    =     1    extended status
  (0080:0080) 1. 7    =     1    (reserved)
  (0040:0000) 1. 6    =     0    MF preamble suppression
  (0020:0020) 1. 5    =     1    A/N complete
  (0010:0000) 1. 4    =     0    remote fault
  (0008:0008) 1. 3    =     1    A/N able
  (0004:0000) 1. 2    =     0    link status
  (0002:0000) 1. 1    =     0    jabber detect
  (0001:0001) 1. 0    =     1    extended capabilities

2.     (001c)                 -- PHY ID 1 register --
  (ffff:001c) 2.15- 0 =    28    OUI portion

3.     (c916)                 -- PHY ID 2 register --
  (fc00:c800) 3.15-10 =    50    OUI portion
  (03f0:0110) 3. 9- 4 =    17    manufacturer part number
  (000f:0006) 3. 3- 0 =     6    manufacturer rev. number

4.     (01e1)                 -- Autonegotiation advertisement register --
  (8000:0000) 4.15    =     0    next page able
  (4000:0000) 4.14    =     0    (reserved)
  (2000:0000) 4.13    =     0    remote fault
  (1000:0000) 4.12    =     0    (reserved)
  (0800:0000) 4.11    =     0    asymmetric pause
  (0400:0000) 4.10    =     0    pause enable
  (0200:0000) 4. 9    =     0    100BASE-T4 able
  (0100:0100) 4. 8    =     1    100BASE-TX full duplex able
  (0080:0080) 4. 7    =     1    100BASE-TX able
  (0040:0040) 4. 6    =     1    10BASE-T   full duplex able
  (0020:0020) 4. 5    =     1    10BASE-T   able
  (001f:0001) 4. 4- 0 =     1    selector = IEEE 802.3

5.     (c5e1)                 -- Autonegotiation partner abilities register --
  (8000:8000) 5.15    =     1    next page able
  (4000:4000) 5.14    =     1    acknowledge
  (2000:0000) 5.13    =     0    remote fault
  (1000:0000) 5.12    =     0    (reserved)
  (0800:0000) 5.11    =     0    asymmetric pause able
  (0400:0400) 5.10    =     1    pause able
  (0200:0000) 5. 9    =     0    100BASE-T4 able
  (0100:0100) 5. 8    =     1    100BASE-X full duplex able
  (0080:0080) 5. 7    =     1    100BASE-TX able
  (0040:0040) 5. 6    =     1    10BASE-T full duplex able
  (0020:0020) 5. 5    =     1    10BASE-T able
  (001f:0001) 5. 4- 0 =     1    selector = IEEE 802.3


0.     (1040)                 -- PHY control register --
  (8000:0000) 0.15    =     0    reset
  (4000:0000) 0.14    =     0    loopback
  (2040:0040) 0. 6,13 =   b10    speed selection = 1000 Mbps
  (1000:1000) 0.12    =     1    A/N enable
  (0800:0000) 0.11    =     0    power-down
  (0400:0000) 0.10    =     0    isolate
  (0200:0000) 0. 9    =     0    restart A/N
  (0100:0000) 0. 8    =     0    duplex = half
  (0080:0000) 0. 7    =     0    collision test enable
  (003f:0000) 0. 5- 0 =     0    (reserved)

1.     (79ad)                 -- PHY status register --
  (8000:0000) 1.15    =     0    100BASE-T4 able
  (4000:4000) 1.14    =     1    100BASE-X  full duplex able
  (2000:2000) 1.13    =     1    100BASE-X  half duplex able
  (1000:1000) 1.12    =     1    10 Mbps    full duplex able
  (0800:0800) 1.11    =     1    10 Mbps    half duplex able
  (0400:0000) 1.10    =     0    100BASE-T2 full duplex able
  (0200:0000) 1. 9    =     0    100BASE-T2 half duplex able
  (0100:0100) 1. 8    =     1    extended status
  (0080:0080) 1. 7    =     1    (reserved)
  (0040:0000) 1. 6    =     0    MF preamble suppression
  (0020:0020) 1. 5    =     1    A/N complete
  (0010:0000) 1. 4    =     0    remote fault
  (0008:0008) 1. 3    =     1    A/N able
  (0004:0004) 1. 2    =     1    link status
  (0002:0000) 1. 1    =     0    jabber detect
  (0001:0001) 1. 0    =     1    extended capabilities

2.     (001c)                 -- PHY ID 1 register --
  (ffff:001c) 2.15- 0 =    28    OUI portion

3.     (c916)                 -- PHY ID 2 register --
  (fc00:c800) 3.15-10 =    50    OUI portion
  (03f0:0110) 3. 9- 4 =    17    manufacturer part number
  (000f:0006) 3. 3- 0 =     6    manufacturer rev. number

4.     (01e1)                 -- Autonegotiation advertisement register --
  (8000:0000) 4.15    =     0    next page able
  (4000:0000) 4.14    =     0    (reserved)
  (2000:0000) 4.13    =     0    remote fault
  (1000:0000) 4.12    =     0    (reserved)
  (0800:0000) 4.11    =     0    asymmetric pause
  (0400:0000) 4.10    =     0    pause enable
  (0200:0000) 4. 9    =     0    100BASE-T4 able
  (0100:0100) 4. 8    =     1    100BASE-TX full duplex able
  (0080:0080) 4. 7    =     1    100BASE-TX able
  (0040:0040) 4. 6    =     1    10BASE-T   full duplex able
  (0020:0020) 4. 5    =     1    10BASE-T   able
  (001f:0001) 4. 4- 0 =     1    selector = IEEE 802.3

5.     (c5e1)                 -- Autonegotiation partner abilities register --
  (8000:8000) 5.15    =     1    next page able
  (4000:4000) 5.14    =     1    acknowledge
  (2000:0000) 5.13    =     0    remote fault
  (1000:0000) 5.12    =     0    (reserved)
  (0800:0000) 5.11    =     0    asymmetric pause able
  (0400:0400) 5.10    =     1    pause able
  (0200:0000) 5. 9    =     0    100BASE-T4 able
  (0100:0100) 5. 8    =     1    100BASE-X full duplex able
  (0080:0080) 5. 7    =     1    100BASE-TX able
  (0040:0040) 5. 6    =     1    10BASE-T full duplex able
  (0020:0020) 5. 5    =     1    10BASE-T able
  (001f:0001) 5. 4- 0 =     1    selector = IEEE 802.3


=> 
0.     (1040)                 -- PHY control register --
  (8000:0000) 0.15    =     0    reset
  (4000:0000) 0.14    =     0    loopback
  (2040:0040) 0. 6,13 =   b10    speed selection = 1000 Mbps
  (1000:1000) 0.12    =     1    A/N enable
  (0800:0000) 0.11    =     0    power-down
  (0400:0000) 0.10    =     0    isolate
  (0200:0000) 0. 9    =     0    restart A/N
  (0100:0000) 0. 8    =     0    duplex = half
  (0080:0000) 0. 7    =     0    collision test enable
  (003f:0000) 0. 5- 0 =     0    (reserved)

1.     (79ad)                 -- PHY status register --
  (8000:0000) 1.15    =     0    100BASE-T4 able
  (4000:4000) 1.14    =     1    100BASE-X  full duplex able
  (2000:2000) 1.13    =     1    100BASE-X  half duplex able
  (1000:1000) 1.12    =     1    10 Mbps    full duplex able
  (0800:0800) 1.11    =     1    10 Mbps    half duplex able
  (0400:0000) 1.10    =     0    100BASE-T2 full duplex able
  (0200:0000) 1. 9    =     0    100BASE-T2 half duplex able
  (0100:0100) 1. 8    =     1    extended status
  (0080:0080) 1. 7    =     1    (reserved)
  (0040:0000) 1. 6    =     0    MF preamble suppression
  (0020:0020) 1. 5    =     1    A/N complete
  (0010:0000) 1. 4    =     0    remote fault
  (0008:0008) 1. 3    =     1    A/N able
  (0004:0004) 1. 2    =     1    link status
  (0002:0000) 1. 1    =     0    jabber detect
  (0001:0001) 1. 0    =     1    extended capabilities

2.     (001c)                 -- PHY ID 1 register --
  (ffff:001c) 2.15- 0 =    28    OUI portion

3.     (c916)                 -- PHY ID 2 register --
  (fc00:c800) 3.15-10 =    50    OUI portion
  (03f0:0110) 3. 9- 4 =    17    manufacturer part number
  (000f:0006) 3. 3- 0 =     6    manufacturer rev. number

4.     (01e1)                 -- Autonegotiation advertisement register --
  (8000:0000) 4.15    =     0    next page able
  (4000:0000) 4.14    =     0    (reserved)
  (2000:0000) 4.13    =     0    remote fault
  (1000:0000) 4.12    =     0    (reserved)
  (0800:0000) 4.11    =     0    asymmetric pause
  (0400:0000) 4.10    =     0    pause enable
  (0200:0000) 4. 9    =     0    100BASE-T4 able
  (0100:0100) 4. 8    =     1    100BASE-TX full duplex able
  (0080:0080) 4. 7    =     1    100BASE-TX able
  (0040:0040) 4. 6    =     1    10BASE-T   full duplex able
  (0020:0020) 4. 5    =     1    10BASE-T   able
  (001f:0001) 4. 4- 0 =     1    selector = IEEE 802.3

5.     (c5e1)                 -- Autonegotiation partner abilities register --
  (8000:8000) 5.15    =     1    next page able
  (4000:4000) 5.14    =     1    acknowledge
  (2000:0000) 5.13    =     0    remote fault
  (1000:0000) 5.12    =     0    (reserved)
  (0800:0000) 5.11    =     0    asymmetric pause able
  (0400:0400) 5.10    =     1    pause able
  (0200:0000) 5. 9    =     0    100BASE-T4 able
  (0100:0100) 5. 8    =     1    100BASE-X full duplex able
  (0080:0080) 5. 7    =     1    100BASE-TX able
  (0040:0040) 5. 6    =     1    10BASE-T full duplex able
  (0020:0020) 5. 5    =     1    10BASE-T able
  (001f:0001) 5. 4- 0 =     1    selector = IEEE 802.3


0.     (1040)                 -- PHY control register --
  (8000:0000) 0.15    =     0    reset
  (4000:0000) 0.14    =     0    loopback
  (2040:0040) 0. 6,13 =   b10    speed selection = 1000 Mbps
  (1000:1000) 0.12    =     1    A/N enable
  (0800:0000) 0.11    =     0    power-down
  (0400:0000) 0.10    =     0    isolate
  (0200:0000) 0. 9    =     0    restart A/N
  (0100:0000) 0. 8    =     0    duplex = half
  (0080:0000) 0. 7    =     0    collision test enable
  (003f:0000) 0. 5- 0 =     0    (reserved)

1.     (79ad)                 -- PHY status register --
  (8000:0000) 1.15    =     0    100BASE-T4 able
  (4000:4000) 1.14    =     1    100BASE-X  full duplex able
  (2000:2000) 1.13    =     1    100BASE-X  half duplex able
  (1000:1000) 1.12    =     1    10 Mbps    full duplex able
  (0800:0800) 1.11    =     1    10 Mbps    half duplex able
  (0400:0000) 1.10    =     0    100BASE-T2 full duplex able
  (0200:0000) 1. 9    =     0    100BASE-T2 half duplex able
  (0100:0100) 1. 8    =     1    extended status
  (0080:0080) 1. 7    =     1    (reserved)
  (0040:0000) 1. 6    =     0    MF preamble suppression
  (0020:0020) 1. 5    =     1    A/N complete
  (0010:0000) 1. 4    =     0    remote fault
  (0008:0008) 1. 3    =     1    A/N able
  (0004:0004) 1. 2    =     1    link status
  (0002:0000) 1. 1    =     0    jabber detect
  (0001:0001) 1. 0    =     1    extended capabilities

2.     (001c)                 -- PHY ID 1 register --
  (ffff:001c) 2.15- 0 =    28    OUI portion

3.     (c916)                 -- PHY ID 2 register --
  (fc00:c800) 3.15-10 =    50    OUI portion
  (03f0:0110) 3. 9- 4 =    17    manufacturer part number
  (000f:0006) 3. 3- 0 =     6    manufacturer rev. number

4.     (01e1)                 -- Autonegotiation advertisement register --
  (8000:0000) 4.15    =     0    next page able
  (4000:0000) 4.14    =     0    (reserved)
  (2000:0000) 4.13    =     0    remote fault
  (1000:0000) 4.12    =     0    (reserved)
  (0800:0000) 4.11    =     0    asymmetric pause
  (0400:0000) 4.10    =     0    pause enable
  (0200:0000) 4. 9    =     0    100BASE-T4 able
  (0100:0100) 4. 8    =     1    100BASE-TX full duplex able
  (0080:0080) 4. 7    =     1    100BASE-TX able
  (0040:0040) 4. 6    =     1    10BASE-T   full duplex able
  (0020:0020) 4. 5    =     1    10BASE-T   able
  (001f:0001) 4. 4- 0 =     1    selector = IEEE 802.3

5.     (c5e1)                 -- Autonegotiation partner abilities register --
  (8000:8000) 5.15    =     1    next page able
  (4000:4000) 5.14    =     1    acknowledge
  (2000:0000) 5.13    =     0    remote fault
  (1000:0000) 5.12    =     0    (reserved)
  (0800:0000) 5.11    =     0    asymmetric pause able
  (0400:0400) 5.10    =     1    pause able
  (0200:0000) 5. 9    =     0    100BASE-T4 able
  (0100:0100) 5. 8    =     1    100BASE-X full duplex able
  (0080:0080) 5. 7    =     1    100BASE-TX able
  (0040:0040) 5. 6    =     1    10BASE-T full duplex able
  (0020:0020) 5. 5    =     1    10BASE-T able
  (001f:0001) 5. 4- 0 =     1    selector = IEEE 802.3


=> reset
"Synchronous Abort" handler, esr 0x96000044
ELR:     fef5295c
LR:      fef52930
x0 : 00001443000040c8 x1 : 000000000000eca8
x2 : 00000000ff440000 x3 : 0000000000000002
x4 : 00000000fcf1e7f0 x5 : 0000000000000000
x6 : 00000000fcf248e3 x7 : 0000000000000064
x8 : 0000000000000003 x9 : 0000000000000008
x10: 0000000000000054 x11: 00000000fcf1e68c
x12: 00000000fcf1eb70 x13: 0000000000001e84
x14: 00000000fcf1e74c x15: 00000000fcf1eb70
x16: 00000000ca621b30 x17: 0000000015e93bdc
x18: 00000000fcf25e10 x19: 0000000000000000
x20: 0000000000000000 x21: 0000000000000000
x22: 00000000fcf28e90 x23: 00000000fefb49c0
x24: 0000000000000001 x25: 0000000000000000
x26: 0000000000000000 x27: 0000000000000000
x28: 00000000fcf28ed0 x29: 00000000fcf1e860

Resetting CPU ...

"Synchronous Abort" handler, esr 0x96000044
ELR:     fef5295c
LR:      fef52930
x0 : 00001443000040c8 x1 : 000000000000eca8
x2 : 00000000ff440000 x3 : 0000000000000002
x4 : 00000000fcf1e530 x5 : 0000000000000000
x6 : 00000000fcf248e3 x7 : 0000000000000064
x8 : 0000000000000003 x9 : 0000000000000008
x10: 0000000000000054 x11: 00000000fcf1e3cc
x12: 00000000fcf1eb70 x13: 0000000000001e84
x14: 00000000fcf1e48c x15: 00000000fcf1eb70
x16: 00000000ca621b30 x17: 0000000015e93bdc
x18: 00000000fcf25e10 x19: 0000000000000000
x20: 0000000000000000 x21: 0000000000000000
x22: 00000000fcf28e90 x23: 00000000fefb49c0
x24: 0000000000000001 x25: 0000000000000000
x26: 0000000000000000 x27: 0000000000000000
x28: 00000000fcf28ed0 x29: 00000000fcf1e5a0

Resetting CPU ...

"Synchronous Abort" handler, esr 0x96000044
ELR:     fef5295c
LR:      fef52930
x0 : 00001443000040c8 x1 : 000000000000eca8
x2 : 00000000ff440000 x3 : 0000000000000002
x4 : 00000000fcf1e270 x5 : 0000000000000000
x6 : 00000000fcf248e3 x7 : 0000000000000064
x8 : 0000000000000003 x9 : 0000000000000008
x10: 0000000000000054 x11: 00000000fcf1e10c
x12: 00000000fcf1eb70 x13: 0000000000001e84
x14: 00000000fcf1e1cc x15: 00000000fcf1eb70
x16: 00000000ca621b30 x17: 0000000015e93bdc
x18: 00000000fcf25e10 x19: 0000000000000000
x20: 0000000000000000 x21: 0000000000000000
x22: 00000000fcf28e90 x23: 00000000fefb49c0
x24: 0000000000000001 x25: 0000000000000000
x26: 0000000000000000 x27: 0000000000000000
x28: 00000000fcf28ed0 x29: 00000000fcf1e2e0

Resetting CPU ...

"Synchronous Abort" handler, esr 0x96000044
ELR:     fef5295c
LR:      fef52930
x0 : 00001443000040c8 x1 : 000000000000eca8
x2 : 00000000ff440000 x3 : 0000000000000002
x4 : 00000000fcf1dfb0 x5 : 0000000000000000
x6 : 00000000fcf248e3 x7 : 0000000000000064
x8 : 0000000000000003 x9 : 0000000000000008
x10: 0000000000000054 x11: 00000000fcf1de4c
x12: 00000000fcf1eb70 x13: 0000000000001e84
x14: 00000000fcf1df0c x15: 00000000fcf1eb70
x16: 00000000ca621b30 x17: 0000000015e93bdc
x18: 00000000fcf25e10 x19: 0000000000000000
x20: 0000000000000000 x21: 0000000000000000
x22: 00000000fcf28e90 x23: 00000000fefb49c0
x24: 0000000000000001 x25: 0000000000000000
x26: 0000000000000000 x27: 0000000000000000
x28: 00000000fcf28ed0 x29: 00000000fcf1e020

Resetting CPU ...

"Synchronous Abort" handler, esr 0x96000044
ELR:     fef5295c
LR:      fef52930
x0 : 00001443000040c8 x1 : 000000000000eca8
x2 : 00000000ff440000 x3 : 0000000000000002
x4 : 00000000fcf1dcf0 x5 : 0000000000000000
x6 : 00000000fcf248e3 x7 : 0000000000000064
x8 : 0000000000000003 x9 : 0000000000000008
x10: 0000000000000054 x11: 00000000fcf1db8c
x12: 00000000fcf1eb70 x13: 0000000000001e84
x14: 00000000fcf1dc4c x15: 00000000fcf1eb70
x16: 00000000ca621b30 x17: 0000000015e93bdc
x18: 00000000fcf25e10 x19: 0000000000000000
x20: 0000000000000000 x21: 0000000000000000
x22: 00000000fcf28e90 x23: 00000000fefb49c0
x24: 0000000000000001 x25: 0000000000000000
x26: 0000000000000000 x27: 0000000000000000
x28: 00000000fcf28ed0 x29: 00000000fcf1dd60

Resetting CPU ...

"Synchronous Abort" handler, esr 0x96000044
ELR:     fef5295c
LR:      fef52930
x0 : 00001443000040c8 x1 : 000000000000eca8
x2 : 00000000ff440000 x3 : 0000000000000002
x4 : 00000000fcf1da30 x5 : 0000000000000000
x6 : 00000000fcf248e3 x7 : 0000000000000064
x8 : 0000000000000003 x9 : 0000000000000008
x10: 0000000000000054 x11: 00000000fcf1d8cc
x12: 00000000fcf1eb70 x13: 0000000000001e84
x14: 00000000fcf1d98c x15: 00000000fcf1eb70
x16: 00000000ca621b30 x17: 0000000015e93bdc
x18: 00000000fcf25e10 x19: 0000000000000000
x20: 0000000000000000 x21: 0000000000000000
x22: 00000000fcf28e90 x23: 00000000fefb49c0
x24: 0000000000000001 x25: 0000000000000000
x26: 0000000000000000 x27: 0000000000000000
x28: 00000000fcf28ed0 x29: 00000000fcf1daa0

Resetting CPU ...

"Synchronous Abort" handler, esr 0x96000044
ELR:     fef5295c
LR:      fef52930
x0 : 00001443000040c8 x1 : 000000000000eca8
x2 : 00000000ff440000 x3 : 0000000000000002
x4 : 00000000fcf1d770 x5 : 0000000000000000
x6 : 00000000fcf248e3 x7 : 0000000000000064
x8 : 0000000000000003 x9 : 0000000000000008
x10: 0000000000000054 x11: 00000000fcf1d60c
x12: 00000000fcf1eb70 x13: 0000000000001e84
x14: 00000000fcf1d6cc x15: 00000000fcf1eb70
x16: 00000000ca621b30 x17: 0000000015e93bdc
x18: 00000000fcf25e10 x19: 0000000000000000
x20: 0000000000000000 x21: 0000000000000000
x22: 00000000fcf28e90 x23: 00000000fefb49c0
x24: 0000000000000001 x25: 0000000000000000
x26: 0000000000000000 x27: 0000000000000000
x28: 00000000fcf28ed0 x29: 00000000fcf1d7e0

Resetting CPU ...

"Synchronous Abort" handler, esr 0x96000044
ELR:     fef5295c
LR:      fef52930
x0 : 00001443000040c8 x1 : 000000000000eca8
x2 : 00000000ff440000 x3 : 0000000000000002
x4 : 00000000fcf1d4b0 x5 : 0000000000000000
x6 : 00000000fcf248e3 x7 : 0000000000000064
x8 : 0000000000000003 x9 : 0000000000000008
x10: 0000000000000054 x11: 00000000fcf1d34c
x12: 00000000fcf1eb70 x13: 0000000000001e84
x14: 00000000fcf1d40c x15: 00000000fcf1eb70
x16: 00000000ca621b30 x17: 0000000015e93bdc
x18: 00000000fcf25e10 x19: 0000000000000000
x20: 0000000000000000 x21: 0000000000000000
x22: 00000000fcf28e90 x23: 00000000fefb49c0
x24: 0000000000000001 x25: 0000000000000000
x26: 0000000000000000 x27: 0000000000000000
x28: 00000000fcf28ed0 x29: 00000000fcf1d520

Resetting CPU ...

"Synchronous Abort" handler, esr 0x96000044
ELR:     fef5295c
LR:      fef52930
x0 : 00001443000040c8 x1 : 000000000000eca8
x2 : 00000000ff440000 x3 : 0000000000000002
x4 : 00000000fcf1d1f0 x5 : 0000000000000000
x6 : 00000000fcf248e3 x7 : 0000000000000064
x8 : 0000000000000003 x9 : 0000000000000008
x10: 0000000000000054 x11: 00000000fcf1d08c
x12: 00000000fcf1eb70 x13: 0000000000001e84
x14: 00000000fcf1d14c x15: 00000000fcf1eb70
x16: 00000000ca621b30 x17: 0000000015e93bdc
x18: 00000000fcf25e10 x19: 0000000000000000
x20: 0000000000000000 x21: 0000000000000000
x22: 00000000fcf28e90 x23: 00000000fefb49c0
x24: 0000000000000001 x25: 0000000000000000
x26: 0000000000000000 x27: 0000000000000000
x28: 00000000fcf28ed0 x29: 00000000fcf1d260

Resetting CPU ...

"Synchronous Abort" handler, esr 0x96000044
ELR:     fef5295c
LR:      fef52930
x0 : 00001443000040c8 x1 : 000000000000eca8
x2 : 00000000ff440000 x3 : 0000000000000002
x4 : 00000000fcf1cf30 x5 : 0000000000000000
x6 : 00000000fcf248e3 x7 : 0000000000000064
x8 : 0000000000000003 x9 : 0000000000000008
x10: 0000000000000054 x11: 00000000fcf1cdcc
x12: 00000000fcf1eb70 x13: 0000000000001e84
x14: 00000000fcf1ce8c x15: 00000000fcf1eb70
x16: 00000000ca621b30 x17: 0000000015e93bdc
x18: 00000000fcf25e10 x19: 0000000000000000
x20: 0000000000000000 x21: 0000000000000000
x22: 00000000fcf28e90 x23: 00000000fefb49c0
x24: 0000000000000001 x25: 0000000000000000
x26: 0000000000000000 x27: 0000000000000000
x28: 00000000fcf28ed0 x29: 00000000fcf1cfa0

Resetting CPU ...

"Synchronous Abort" handler, esr 0x96000044
ELR:     fef5295c
LR:      fef52930
x0 : 00001443000040c8 x1 : 000000000000eca8
x2 : 00000000ff440000 x3 : 0000000000000002
x4 : 00000000fcf1cc70 x5 : 0000000000000000
x6 : 00000000fcf248e3 x7 : 0000000000000064
x8 : 0000000000000003 x9 : 0000000000000008
x10: 0000000000000054 x11: 00000000fcf1cb0c
x12: 00000000fcf1eb70 x13: 0000000000001e84
x14: 00000000fcf1cbcc x15: 00000000fcf1eb70
x16: 00000000ca621b30 x17: 0000000015e93bdc
x18: 00000000fcf25e10 x19: 0000000000000000
x20: 0000000000000000 x21: 0000000000000000
x22: 00000000fcf28e90 x23: 00000000fefb49c0
x24: 0000000000000001 x25: 0000000000000000
x26: 0000000000000000 x27: 0000000000000000
x28: 00000000fcf28ed0 x29: 00000000fcf1cce0

Resetting CPU ...

"Synchronous Abort" handler, esr 0x96000044
ELR:     fef5295c
LR:      fef52930
x0 : 00001443000040c8 x1 : 000000000000eca8
x2 : 00000000ff440000 x3 : 0000000000000002
x4 : 00000000fcf1c9b0 x5 : 0000000000000000
x6 : 00000000fcf248e3 x7 : 0000000000000064
x8 : 0000000000000003 x9 : 0000000000000008
x10: 0000000000000054 x11: 00000000fcf1c84c
x12: 00000000fcf1eb70 x13: 0000000000001e84
x14: 00000000fcf1c90c x15: 00000000fcf1eb70
x16: 00000000ca621b30 x17: 0000000015e93bdc
x18: 00000000fcf25e10 x19: 0000000000000000
x20: 0000000000000000 x21: 0000000000000000
x22: 00000000fcf28e90 x23: 00000000fefb49c0
x24: 0000000000000001 x25: 0000000000000000
x26: 0000000000000000 x27: 0000000000000000
x28: 00000000fcf28ed0 x29: 00000000fcf1ca20

Resetting CPU ...

"Synchronous Abort" handler, esr 0x96000044
ELR:     fef5295c
LR:      fef52930
x0 : 00001443000040c8 x1 : 000000000000eca8
x2 : 00000000ff440000 x3 : 0000000000000002
x4 : 00000000fcf1c6f0 x5 : 0000000000000000
x6 : 00000000fcf248e3 x7 : 0000000000000064
x8 : 0000000000000003 x9 : 0000000000000008
x10: 0000000000000054 x11: 00000000fcf1c58c
x12: 00000000fcf1eb70 x13: 0000000000001e84
x14: 00000000fcf1c64c x15: 00000000fcf1eb70
x16: 00000000ca621b30 x17: 0000000015e93bdc
x18: 00000000fcf25e10 x19: 0000000000000000
x20: 0000000000000000 x21: 0000000000000000
x22: 00000000fcf28e90 x23: 00000000fefb49c0
x24: 0000000000000001 x25: 0000000000000000
x26: 0000000000000000 x27: 0000000000000000
x28: 00000000fcf28ed0 x29: 00000000fcf1c760

Resetting CPU ...

"Synchronous Abort" handler, esr 0x96000044
ELR:     fef5295c
LR:      fef52930
x0 : 00001443000040c8 x1 : 000000000000eca8
x2 : 00000000ff440000 x3 : 0000000000000002
x4 : 00000000fcf1c430 x5 : 0000000000000000
x6 : 00000000fcf248e3 x7 : 0000000000000064
x8 : 0000000000000003 x9 : 0000000000000008
x10: 0000000000000054 x11: 00000000fcf1c2cc
x12: 00000000fcf1eb70 x13: 0000000000001e84
x14: 00000000fcf1c38c x15: 00000000fcf1eb70
x16: 00000000ca621b30 x17: 0000000015e93bdc
x18: 00000000fcf25e10 x19: 0000000000000000
x20: 0000000000000000 x21: 0000000000000000
x22: 00000000fcf28e90 x23: 00000000fefb49c0
x24: 0000000000000001 x25: 0000000000000000
x26: 0000000000000000 x27: 0000000000000000
x28: 00000000fcf28ed0 x29: 00000000fcf1c4a0

Resetting CPU ...

"Synchronous Abort" handler, esr 0x96000044
ELR:     fef5295c
LR:      fef52930
x0 : 00001443000040c8 x1 : 000000000000eca8
x2 : 00000000ff440000 x3 : 0000000000000002
x4 : 00000000fcf1c170 x5 : 0000000000000000
x6 : 00000000fcf248e3 x7 : 0000000000000064
x8 : 0000000000000003 x9 : 0000000000000008
x10: 0000000000000054 x11: 00000000fcf1c00c
x12: 00000000fcf1eb70 x13: 0000000000001e84
x14: 00000000fcf1c0cc x15: 00000000fcf1eb70
x16: 00000000ca621b30 x17: 0000000015e93bdc
x18: 00000000fcf25e10 x19: 0000000000000000
x20: 0000000000000000 x21: 0000000000000000
x22: 00000000fcf28e90 x23: 00000000fefb49c0
x24: 0000000000000001 x25: 0000000000000000
x26: 0000000000000000 x27: 0000000000000000
x28: 00000000fcf28ed0 x29: 00000000fcf1c1e0

Resetting CPU ...

"Synchronous Abort" handler, esr 0x96000044
ELR:     fef5295c
LR:      fef52930
x0 : 00001443000040c8 x1 : 000000000000eca8
x2 : 00000000ff440000 x3 : 0000000000000002
x4 : 00000000fcf1beb0 x5 : 0000000000000000
x6 : 00000000fcf248e3 x7 : 0000000000000064
x8 : 0000000000000003 x9 : 0000000000000008
x10: 0000000000000054 x11: 00000000fcf1bd4c
x12: 00000000fcf1eb70 x13: 0000000000001e84
x14: 00000000fcf1be0c x15: 00000000fcf1eb70
x16: 00000000ca621b30 x17: 0000000015e93bdc
x18: 00000000fcf25e10 x19: 0000000000000000
x20: 0000000000000000 x21: 0000000000000000
x22: 00000000fcf28e90 x23: 00000000fefb49c0
x24: 0000000000000001 x25: 0000000000000000
x26: 0000000000000000 x27: 0000000000000000
x28: 00000000fcf28ed0 x29: 00000000fcf1bf20

Resetting CPU ...

"Synchronous Abort" handler, esr 0x96000044
ELR:     fef5295c
LR:      fef52930
x0 : 00001443000040c8 x1 : 000000000000eca8
x2 : 00000000ff440000 x3 : 0000000000000002
x4 : 00000000fcf1bbf0 x5 : 0000000000000000
x6 : 00000000fcf248e3 x7 : 0000000000000064
x8 : 0000000000000003 x9 : 0000000000000008
x10: 0000000000000054 x11: 00000000fcf1ba8c
x12: 00000000fcf1eb70 x13: 0000000000001e84
x14: 00000000fcf1bb4c x15: 00000000fcf1eb70
x16: 00000000ca621b30 x17: 0000000015e93bdc
x18: 00000000fcf25e10 x19: 0000000000000000
x20: 0000000000000000 x21: 0000000000000000
x22: 00000000fcf28e90 x23: 00000000fefb49c0
x24: 0000000000000001 x25: 0000000000000000
x26: 0000000000000000 x27: 0000000000000000
x28: 00000000fcf28ed0 x29: 00000000fcf1bc60

Resetting CPU ...

"Synchronous Abort" handler, esr 0x96000044
ELR:     fef5295c
LR:      fef52930
x0 : 00001443000040c8 x1 : 000000000000eca8
x2 : 00000000ff440000 x3 : 0000000000000002
x4 : 00000000fcf1b930 x5 : 0000000000000000
x6 : 00000000fcf248e3 x7 : 0000000000000064
x8 : 0000000000000003 x9 : 0000000000000008
x10: 0000000000000054 x11: 00000000fcf1b7cc
x12: 00000000fcf1eb70 x13: 0000000000001e84
x14: 00000000fcf1b88c x15: 00000000fcf1eb70
x16: 00000000ca621b30 x17: 0000000015e93bdc
x18: 00000000fcf25e10 x19: 0000000000000000
x20: 0000000000000000 x21: 0000000000000000
x22: 00000000fcf28e90 x23: 00000000fefb49c0
x24: 0000000000000001 x25: 0000000000000000
x26: 0000000000000000 x27: 0000000000000000
x28: 00000000fcf28ed0 x29: 00000000fcf1b9a0

Resetting CPU ...

"Synchronous Abort" handler, esr 0x96000044
ELR:     fef5295c
LR:      fef52930
x0 : 00001443000040c8 x1 : 000000000000eca8
x2 : 00000000ff440000 x3 : 0000000000000002
x4 : 00000000fcf1b670 x5 : 0000000000000000
x6 : 00000000fcf248e3 x7 : 0000000000000064
x8 : 0000000000000003 x9 : 0000000000000008
x10: 0000000000000054 x11: 00000000fcf1b50c
x12: 00000000fcf1eb70 x13: 0000000000001e84
x14: 00000000fcf1b5cc x15: 00000000fcf1eb70
x16: 00000000ca621b30 x17: 0000000015e93bdc
x18: 00000000fcf25e10 x19: 0000000000000000
x20: 0000000000000000 x21: 0000000000000000
x22: 00000000fcf28e90 x23: 00000000fefb49c0
x24: 0000000000000001 x25: 0000000000000000
x26: 0000000000000000 x27: 0000000000000000
x28: 00000000fcf28ed0 x29: 00000000fcf1b6e0

Resetting CPU ...

"Synchronous Abort" handler, esr 0x96000044
ELR:     fef5295c
LR:      fef52930
x0 : 00001443000040c8 x1 : 000000000000eca8
x2 : 00000000ff440000 x3 : 0000000000000002
x4 : 00000000fcf1b3b0 x5 : 0000000000000000
x6 : 00000000fcf248e3 x7 : 0000000000000064
x8 : 0000000000000003 x9 : 0000000000000008
x10: 0000000000000054 x11: 00000000fcf1b24c
x12: 00000000fcf1eb70 x13: 0000000000001e84
x14: 00000000fcf1b30c x15: 00000000fcf1eb70
x16: 00000000ca621b30 x17: 0000000015e93bdc
x18: 00000000fcf25e10 x19: 0000000000000000
x20: 0000000000000000 x21: 0000000000000000
x22: 00000000fcf28e90 x23: 00000000fefb49c0
x24: 0000000000000001 x25: 0000000000000000
x26: 0000000000000000 x27: 0000000000000000
x28: 00000000fcf28ed0 x29: 00000000fcf1b420

Resetting CPU ...

"Synchronous Abort" handler, esr 0x96000044
ELR:     fef5295c
LR:      fef52930
x0 : 00001443000040c8 x1 : 000000000000eca8
x2 : 00000000ff440000 x3 : 0000000000000002
x4 : 00000000fcf1b0f0 x5 : 0000000000000000
x6 : 00000000fcf248e3 x7 : 0000000000000064
x8 : 0000000000000003 x9 : 0000000000000008
x10: 0000000000000054 x11: 00000000fcf1af8c
x12: 00000000fcf1eb70 x13: 0000000000001e84
x14: 00000000fcf1b04c x15: 00000000fcf1eb70
x16: 00000000ca621b30 x17: 0000000015e93bdc
x18: 00000000fcf25e10 x19: 0000000000000000
x20: 0000000000000000 x21: 0000000000000000
x22: 00000000fcf28e90 x23: 00000000fefb49c0
x24: 0000000000000001 x25: 0000000000000000
x26: 0000000000000000 x27: 0000000000000000
x28: 00000000fcf28ed0 x29: 00000000fcf1b160

Resetting CPU ...

"Synchronous Abort" handler, esr 0x96000044
ELR:     fef5295c
LR:      fef52930
x0 : 00001443000040c8 x1 : 000000000000eca8
x2 : 00000000ff440000 x3 : 0000000000000002
x4 : 00000000fcf1ae30 x5 : 0000000000000000
x6 : 00000000fcf248e3 x7 : 0000000000000064
x8 : 0000000000000003 x9 : 0000000000000008
x10: 0000000000000054 x11: 00000000fcf1accc
x12: 00000000fcf1eb70 x13: 0000000000001e84
x14: 00000000fcf1ad8c x15: 00000000fcf1eb70
x16: 00000000ca621b30 x17: 0000000015e93bdc
x18: 00000000fcf25e10 x19: 0000000000000000
x20: 0000000000000000 x21: 0000000000000000
x22: 00000000fcf28e90 x23: 00000000fefb49c0
x24: 0000000000000001 x25: 0000000000000000
x26: 0000000000000000 x27: 0000000000000000
x28: 00000000fcf28ed0 x29: 00000000fcf1aea0

Resetting CPU ...

"Synchronous Abort" handler, esr 0x96000044
ELR:     fef5295c
LR:      fef52930
x0 : 00001443000040c8 x1 : 000000000000eca8
x2 : 00000000ff440000 x3 : 0000000000000002
x4 : 00000000fcf1ab70 x5 : 0000000000000000
x6 : 00000000fcf248e3 x7 : 0000000000000064
x8 : 0000000000000003 x9 : 0000000000000008
x10: 0000000000000054 x11: 00000000fcf1aa0c
x12: 00000000fcf1eb70 x13: 0000000000001e84
x14: 00000000fcf1aacc x15: 00000000fcf1eb70
x16: 00000000ca621b30 x17: 0000000015e93bdc
x18: 00000000fcf25e10 x19: 0000000000000000
x20: 0000000000000000 x21: 0000000000000000
x22: 00000000fcf28e90 x23: 00000000fefb49c0
x24: 0000000000000001 x25: 0000000000000000
x26: 0000000000000000 x27: 0000000000000000
x28: 00000000fcf28ed0 x29: 00000000fcf1abe0

Resetting CPU ...

"Synchronous Abort" handler, esr 0x96000044
ELR:     fef5295c
LR:      fef52930
x0 : 00001443000040c8 x1 : 000000000000eca8
x2 : 00000000ff440000 x3 : 0000000000000002
x4 : 00000000fcf1a8b0 x5 : 0000000000000000
x6 : 00000000fcf248e3 x7 : 0000000000000064
x8 : 0000000000000003 x9 : 0000000000000008
x10: 0000000000000054 x11: 00000000fcf1a74c
x12: 00000000fcf1eb70 x13: 0000000000001e84
x14: 00000000fcf1a80c x15: 00000000fcf1eb70
x16: 00000000ca621b30 x17: 0000000015e93bdc
x18: 00000000fcf25e10 x19: 0000000000000000
x20: 0000000000000000 x21: 0000000000000000
x22: 00000000fcf28e90 x23: 00000000fefb49c0
x24: 0000000000000001 x25: 0000000000000000
x26: 0000000000000000 x27: 0000000000000000
x28: 00000000fcf28ed0 x29: 00000000fcf1a920

Resetting CPU ...

"Synchronous Abort" handler, esr 0x96000044
ELR:     fef5295c
LR:      fef52930
x0 : 00001443000040c8 x1 : 000000000000eca8
x2 : 00000000ff440000 x3 : 0000000000000002
x4 : 00000000fcf1a5f0 x5 : 0000000000000000
x6 : 00000000fcf248e3 x7 : 0000000000000064
x8 : 0000000000000003 x9 : 0000000000000008
x10: 0000000000000054 x11: 00000000fcf1a48c
x12: 00000000fcf1eb70 x13: 0000000000001e84
x14: 00000000fcf1a54c x15: 00000000fcf1eb70
x16: 00000000ca621b30 x17: 0000000015e93bdc
x18: 00000000fcf25e10 x19: 0000000000000000
x20: 0000000000000000 x21: 0000000000000000
x22: 00000000fcf28e90 x23: 00000000fefb49c0
x24: 0000000000000001 x25: 0000000000000000
x26: 0000000000000000 x27: 0000000000000000
x28: 00000000fcf28ed0 x29: 00000000fcf1a660

Resetting CPU ...

"Synchronous Abort" handler, esr 0x96000044
ELR:     fef5295c
LR:      fef52930
x0 : 00001443000040c8 x1 : 000000000000eca8
x2 : 00000000ff440000 x3 : 0000000000000002
x4 : 00000000fcf1a330 x5 : 0000000000000000
x6 : 00000000fcf248e3 x7 : 0000000000000064
x8 : 0000000000000003 x9 : 0000000000000008
x10: 0000000000000054 x11: 00000000fcf1a1cc
x12: 00000000fcf1eb70 x13: 0000000000001e84
x14: 00000000fcf1a28c x15: 00000000fcf1eb70
x16: 00000000ca621b30 x17: 0000000015e93bdc
x18: 00000000fcf25e10 x19: 0000000000000000
x20: 0000000000000000 x21: 0000000000000000
x22: 00000000fcf28e90 x23: 00000000fefb49c0
x24: 0000000000000001 x25: 0000000000000000
x26: 0000000000000000 x27: 0000000000000000
x28: 00000000fcf28ed0 x29: 00000000fcf1a3a0

Resetting CPU ...

"Synchronous Abort" handler, esr 0x96000044
ELR:     fef5295c
LR:      fef52930
x0 : 00001443000040c8 x1 : 000000000000eca8
x2 : 00000000ff440000 x3 : 0000000000000002
x4 : 00000000fcf1a070 x5 : 0000000000000000
x6 : 00000000fcf248e3 x7 : 0000000000000064
x8 : 0000000000000003 x9 : 0000000000000008
x10: 0000000000000054 x11: 00000000fcf19f0c
x12: 00000000fcf1eb70 x13: 0000000000001e84
x14: 00000000fcf19fcc x15: 00000000fcf1eb70
x16: 00000000ca621b30 x17: 0000000015e93bdc
x18: 00000000fcf25e10 x19: 0000000000000000
x20: 0000000000000000 x21: 0000000000000000
x22: 00000000fcf28e90 x23: 00000000fefb49c0
x24: 0000000000000001 x25: 0000000000000000
x26: 0000000000000000 x27: 0000000000000000
x28: 00000000fcf28ed0 x29: 00000000fcf1a0e0

Resetting CPU ...

"Synchronous Abort" handler, esr 0x96000044
ELR:     fef5295c
LR:      fef52930
x0 : 00001443000040c8 x1 : 000000000000eca8
x2 : 00000000ff440000 x3 : 0000000000000002
x4 : 00000000fcf19db0 x5 : 0000000000000000
x6 : 00000000fcf248e3 x7 : 0000000000000064
x8 : 0000000000000003 x9 : 0000000000000008
x10: 0000000000000054 x11: 00000000fcf19c4c
x12: 00000000fcf1eb70 x13: 0000000000001e84
x14: 00000000fcf19d0c x15: 00000000fcf1eb70
x16: 00000000ca621b30 x17: 0000000015e93bdc
x18: 00000000fcf25e10 x19: 0000000000000000
x20: 0000000000000000 x21: 0000000000000000
x22: 00000000fcf28e90 x23: 00000000fefb49c0
x24: 0000000000000001 x25: 0000000000000000
x26: 0000000000000000 x27: 0000000000000000
x28: 00000000fcf28ed0 x29: 00000000fcf19e20

Resetting CPU ...

"Synchronous Abort" handler, esr 0x96000044
ELR:     fef5295c
LR:      fef52930
x0 : 00001443000040c8 x1 : 000000000000eca8
x2 : 00000000ff440000 x3 : 0000000000000002
x4 : 00000000fcf19af0 x5 : 0000000000000000
x6 : 00000000fcf248e3 x7 : 0000000000000064
x8 : 0000000000000003 x9 : 0000000000000008
x10: 0000000000000054 x11: 00000000fcf1998c
x12: 00000000fcf1eb70 x13: 0000000000001e84
x14: 00000000fcf19a4c x15: 00000000fcf1eb70
x16: 00000000ca621b30 x17: 0000000015e93bdc
x18: 00000000fcf25e10 x19: 0000000000000000
x20: 0000000000000000 x21: 0000000000000000
x22: 00000000fcf28e90 x23: 00000000fefb49c0
x24: 0000000000000001 x25: 0000000000000000
x26: 0000000000000000 x27: 0000000000000000
x28: 00000000fcf28ed0 x29: 00000000fcf19b60

Resetting CPU ...

"Synchronous Abort" handler, esr 0x96000044
ELR:     fef5295c
LR:      fef52930
x0 : 00001443000040c8 x1 : 000000000000eca8
x2 : 00000000ff440000 x3 : 0000000000000002
x4 : 00000000fcf19830 x5 : 0000000000000000
x6 : 00000000fcf248e3 x7 : 0000000000000064
x8 : 0000000000000003 x9 : 0000000000000008
x10: 0000000000000054 x11: 00000000fcf196cc
x12: 00000000fcf1eb70 x13: 0000000000001e84
x14: 00000000fcf1978c x15: 00000000fcf1eb70
x16: 00000000ca621b30 x17: 0000000015e93bdc
x18: 00000000fcf25e10 x19: 0000000000000000
x20: 0000000000000000 x21: 0000000000000000
x22: 00000000fcf28e90 x23: 00000000fefb49c0
x24: 0000000000000001 x25: 0000000000000000
x26: 0000000000000000 x27: 0000000000000000
x28: 00000000fcf28ed0 x29: 00000000fcf198a0

Resetting CPU ...

"Synchronous Abort" handler, esr 0x96000044
ELR:     fef5295c
LR:      fef52930
x0 : 00001443000040c8 x1 : 000000000000eca8
x2 : 00000000ff440000 x3 : 0000000000000002
x4 : 00000000fcf19570 x5 : 0000000000000000
x6 : 00000000fcf248e3 x7 : 0000000000000064
x8 : 0000000000000003 x9 : 0000000000000008
x10: 0000000000000054 x11: 00000000fcf1940c
x12: 00000000fcf1eb70 x13: 0000000000001e84
x14: 00000000fcf194cc x15: 00000000fcf1eb70
x16: 00000000ca621b30 x17: 0000000015e93bdc
x18: 00000000fcf25e10 x19: 0000000000000000
x20: 0000000000000000 x21: 0000000000000000
x22: 00000000fcf28e90 x23: 00000000fefb49c0
x24: 0000000000000001 x25: 0000000000000000
x26: 0000000000000000 x27: 0000000000000000
x28: 00000000fcf28ed0 x29: 00000000fcf195e0

Resetting CPU ...

"Synchronous Abort" handler, esr 0x96000044
ELR:     fef5295c
LR:      fef52930
x0 : 00001443000040c8 x1 : 000000000000eca8
x2 : 00000000ff440000 x3 : 0000000000000002
x4 : 00000000fcf192b0 x5 : 0000000000000000
x6 : 00000000fcf248e3 x7 : 0000000000000064
x8 : 0000000000000003 x9 : 0000000000000008
x10: 0000000000000054 x11: 00000000fcf1914c
x12: 00000000fcf1eb70 x13: 0000000000001e84
x14: 00000000fcf1920c x15: 00000000fcf1eb70
x16: 00000000ca621b30 x17: 0000000015e93bdc
x18: 00000000fcf25e10 x19: 0000000000000000
x20: 0000000000000000 x21: 0000000000000000
x22: 00000000fcf28e90 x23: 00000000fefb49c0
x24: 0000000000000001 x25: 0000000000000000
x26: 0000000000000000 x27: 0000000000000000
x28: 00000000fcf28ed0 x29: 00000000fcf19320

Resetting CPU ...

"Synchronous Abort" handler, esr 0x96000044
ELR:     fef5295c
LR:      fef52930
x0 : 00001443000040c8 x1 : 000000000000eca8
x2 : 00000000ff440000 x3 : 0000000000000002
x4 : 00000000fcf18ff0 x5 : 0000000000000000
x6 : 00000000fcf248e3 x7 : 0000000000000064
x8 : 0000000000000003 x9 : 0000000000000008
x10: 0000000000000054 x11: 00000000fcf18e8c
x12: 00000000fcf1eb70 x13: 0000000000001e84
x14: 00000000fcf18f4c x15: 00000000fcf1eb70
x16: 00000000ca621b30 x17: 0000000015e93bdc
x18: 00000000fcf25e10 x19: 0000000000000000
x20: 0000000000000000 x21: 0000000000000000
x22: 00000000fcf28e90 x23: 00000000fefb49c0
x24: 0000000000000001 x25: 0000000000000000
x26: 0000000000000000 x27: 0000000000000000
x28: 00000000fcf28ed0 x29: 00000000fcf19060

Resetting CPU ...

"Synchronous Abort" handler, esr 0x96000044
ELR:     fef5295c
LR:      fef52930
x0 : 00001443000040c8 x1 : 000000000000eca8
x2 : 00000000ff440000 x3 : 0000000000000002
x4 : 00000000fcf18d30 x5 : 0000000000000000
x6 : 00000000fcf248e3 x7 : 0000000000000064
x8 : 0000000000000003 x9 : 0000000000000008
x10: 0000000000000054 x11: 00000000fcf18bcc
x12: 00000000fcf1eb70 x13: 0000000000001e84
x14: 00000000fcf18c8c x15: 00000000fcf1eb70
x16: 00000000ca621b30 x17: 0000000015e93bdc
x18: 00000000fcf25e10 x19: 0000000000000000
x20: 0000000000000000 x21: 0000000000000000
x22: 00000000fcf28e90 x23: 00000000fefb49c0
x24: 0000000000000001 x25: 0000000000000000
x26: 0000000000000000 x27: 0000000000000000
x28: 00000000fcf28ed0 x29: 00000000fcf18da0

Resetting CPU ...

"Synchronous Abort" handler, esr 0x96000044
ELR:     fef5295c
LR:      fef52930
x0 : 00001443000040c8 x1 : 000000000000eca8
x2 : 00000000ff440000 x3 : 0000000000000002
x4 : 00000000fcf18a70 x5 : 0000000000000000
x6 : 00000000fcf248e3 x7 : 0000000000000064
x8 : 0000000000000003 x9 : 0000000000000008
x10: 0000000000000054 x11: 00000000fcf1890c
x12: 00000000fcf1eb70 x13: 0000000000001e84
x14: 00000000fcf189cc x15: 00000000fcf1eb70
x16: 00000000ca621b30 x17: 0000000015e93bdc
x18: 00000000fcf25e10 x19: 0000000000000000
x20: 0000000000000000 x21: 0000000000000000
x22: 00000000fcf28e90 x23: 00000000fefb49c0
x24: 0000000000000001 x25: 0000000000000000
x26: 0000000000000000 x27: 0000000000000000
x28: 00000000fcf28ed0 x29: 00000000fcf18ae0

Resetting CPU ...

"Synchronous Abort" handler, esr 0x96000044
ELR:     fef5295c
LR:      fef52930
x0 : 00001443000040c8 x1 : 000000000000eca8
x2 : 00000000ff440000 x3 : 0000000000000002
x4 : 00000000fcf187b0 x5 : 0000000000000000
x6 : 00000000fcf248e3 x7 : 0000000000000064
x8 : 0000000000000003 x9 : 0000000000000008
x10: 0000000000000054 x11: 00000000fcf1864c
x12: 00000000fcf1eb70 x13: 0000000000001e84
x14: 00000000fcf1870c x15: 00000000fcf1eb70
x16: 00000000ca621b30 x17: 0000000015e93bdc
x18: 00000000fcf25e10 x19: 0000000000000000
x20: 0000000000000000 x21: 0000000000000000
x22: 00000000fcf28e90 x23: 00000000fefb49c0
x24: 0000000000000001 x25: 0000000000000000
x26: 0000000000000000 x27: 0000000000000000
x28: 00000000fcf28ed0 x29: 00000000fcf18820

Resetting CPU ...

"Synchronous Abort" handler, esr 0x96000044
ELR:     fef5295c
LR:      fef52930
x0 : 00001443000040c8 x1 : 000000000000eca8
x2 : 00000000ff440000 x3 : 0000000000000002
x4 : 00000000fcf184f0 x5 : 0000000000000000
x6 : 00000000fcf248e3 x7 : 0000000000000064
x8 : 0000000000000003 x9 : 0000000000000008
x10: 0000000000000054 x11: 00000000fcf1838c
x12: 00000000fcf1eb70 x13: 0000000000001e84
x14: 00000000fcf1844c x15: 00000000fcf1eb70
x16: 00000000ca621b30 x17: 0000000015e93bdc
x18: 00000000fcf25e10 x19: 0000000000000000
x20: 0000000000000000 x21: 0000000000000000
x22: 00000000fcf28e90 x23: 00000000fefb49c0
x24: 0000000000000001 x25: 0000000000000000
x26: 0000000000000000 x27: 0000000000000000
x28: 00000000fcf28ed0 x29: 00000000fcf18560

Resetting CPU ...

"Synchronous Abort" handler, esr 0x96000044
ELR:     fef5295c
LR:      fef52930
x0 : 00001443000040c8 x1 : 000000000000eca8
x2 : 00000000ff440000 x3 : 0000000000000002
x4 : 00000000fcf18230 x5 : 0000000000000000
x6 : 00000000fcf248e3 x7 : 0000000000000064
x8 : 0000000000000003 x9 : 0000000000000008
x10: 0000000000000054 x11: 00000000fcf180cc
x12: 00000000fcf1eb70 x13: 0000000000001e84
x14: 00000000fcf1818c x15: 00000000fcf1eb70
x16: 00000000ca621b30 x17: 0000000015e93bdc
x18: 00000000fcf25e10 x19: 0000000000000000
x20: 0000000000000000 x21: 0000000000000000
x22: 00000000fcf28e90 x23: 00000000fefb49c0
x24: 0000000000000001 x25: 0000000000000000
x26: 0000000000000000 x27: 0000000000000000
x28: 00000000fcf28ed0 x29: 00000000fcf182a0

Resetting CPU ...

"Synchronous Abort" handler, esr 0x96000044
ELR:     fef5295c
LR:      fef52930
x0 : 00001443000040c8 x1 : 000000000000eca8
x2 : 00000000ff440000 x3 : 0000000000000002
x4 : 00000000fcf17f70 x5 : 0000000000000000
x6 : 00000000fcf248e3 x7 : 0000000000000064
x8 : 0000000000000003 x9 : 0000000000000008
x10: 0000000000000054 x11: 00000000fcf17e0c
x12: 00000000fcf1eb70 x13: 0000000000001e84
x14: 00000000fcf17ecc x15: 00000000fcf1eb70
x16: 00000000ca621b30 x17: 0000000015e93bdc
x18: 00000000fcf25e10 x19: 0000000000000000
x20: 0000000000000000 x21: 0000000000000000
x22: 00000000fcf28e90 x23: 00000000fefb49c0
x24: 0000000000000001 x25: 0000000000000000
x26: 0000000000000000 x27: 0000000000000000
x28: 00000000fcf28ed0 x29: 00000000fcf17fe0

Resetting CPU ...

"Synchronous Abort" handler, esr 0x96000044
ELR:     fef5295c
LR:      fef52930
x0 : 00001443000040c8 x1 : 000000000000eca8
x2 : 00000000ff440000 x3 : 0000000000000002
x4 : 00000000fcf17cb0 x5 : 0000000000000000
x6 : 00000000fcf248e3 x7 : 0000000000000064
x8 : 0000000000000003 x9 : 0000000000000008
x10: 0000000000000054 x11: 00000000fcf17b4c
x12: 00000000fcf1eb70 x13: 0000000000001e84
x14: 00000000fcf17c0c x15: 00000000fcf1eb70
x16: 00000000ca621b30 x17: 0000000015e93bdc
x18: 00000000fcf25e10 x19: 0000000000000000
x20: 0000000000000000 x21: 0000000000000000
x22: 00000000fcf28e90 x23: 00000000fefb49c0
x24: 0000000000000001 x25: 0000000000000000
x26: 0000000000000000 x27: 0000000000000000
x28: 00000000fcf28ed0 x29: 00000000fcf17d20

Resetting CPU ...

"Synchronous Abort" handler, esr 0x96000044
ELR:     fef5295c
LR:      fef52930
x0 : 00001443000040c8 x1 : 000000000000eca8
x2 : 00000000ff440000 x3 : 0000000000000002
x4 : 00000000fcf179f0 x5 : 0000000000000000
x6 : 00000000fcf248e3 x7 : 0000000000000064
x8 : 0000000000000003 x9 : 0000000000000008
x10: 0000000000000054 x11: 00000000fcf1788c
x12: 00000000fcf1eb70 x13: 0000000000001e84
x14: 00000000fcf1794c x15: 00000000fcf1eb70
x16: 00000000ca621b30 x17: 0000000015e93bdc
x18: 00000000fcf25e10 x19: 0000000000000000
x20: 0000000000000000 x21: 0000000000000000
x22: 00000000fcf28e90 x23: 00000000fefb49c0
x24: 0000000000000001 x25: 0000000000000000
x26: 0000000000000000 x27: 0000000000000000
x28: 00000000fcf28ed0 x29: 00000000fcf17a60

Resetting CPU ...

"Synchronous Abort" handler, esr 0x96000044
ELR:     fef5295c
LR:      fef52930
x0 : 00001443000040c8 x1 : 000000000000eca8
x2 : 00000000ff440000 x3 : 0000000000000002
x4 : 00000000fcf17730 x5 : 0000000000000000
x6 : 00000000fcf248e3 x7 : 0000000000000064
x8 : 0000000000000003 x9 : 0000000000000008
x10: 0000000000000054 x11: 00000000fcf175cc
x12: 00000000fcf1eb70 x13: 0000000000001e84
x14: 00000000fcf1768c x15: 00000000fcf1eb70
x16: 00000000ca621b30 x17: 0000000015e93bdc
x18: 00000000fcf25e10 x19: 0000000000000000
x20: 0000000000000000 x21: 0000000000000000
x22: 00000000fcf28e90 x23: 00000000fefb49c0
x24: 0000000000000001 x25: 0000000000000000
x26: 0000000000000000 x27: 0000000000000000
x28: 00000000fcf28ed0 x29: 00000000fcf177a0

Resetting CPU ...

"Synchronous Abort" handler, esr 0x96000044
ELR:     fef5295c
LR:      fef52930
x0 : 00001443000040c8 x1 : 000000000000eca8
x2 : 00000000ff440000 x3 : 0000000000000002
x4 : 00000000fcf17470 x5 : 0000000000000000
x6 : 00000000fcf248e3 x7 : 0000000000000064
x8 : 0000000000000003 x9 : 0000000000000008
x10: 0000000000000054 x11: 00000000fcf1730c
x12: 00000000fcf1eb70 x13: 0000000000001e84
x14: 00000000fcf173cc x15: 00000000fcf1eb70
x16: 00000000ca621b30 x17: 0000000015e93bdc
x18: 00000000fcf25e10 x19: 0000000000000000
x20: 0000000000000000 x21: 0000000000000000
x22: 00000000fcf28e90 x23: 00000000fefb49c0
x24: 0000000000000001 x25: 0000000000000000
x26: 0000000000000000 x27: 0000000000000000
x28: 00000000fcf28ed0 x29: 00000000fcf174e0

Resetting CPU ...

"Synchronous Abort" handler, esr 0x96000044
ELR:     fef5295c
LR:      fef52930
x0 : 00001443000040c8 x1 : 000000000000eca8
x2 : 00000000ff440000 x3 : 0000000000000002
x4 : 00000000fcf171b0 x5 : 0000000000000000
x6 : 00000000fcf248e3 x7 : 0000000000000064
x8 : 0000000000000003 x9 : 0000000000000008
x10: 0000000000000054 x11: 00000000fcf1704c
x12: 00000000fcf1eb70 x13: 0000000000001e84
x14: 00000000fcf1710c x15: 00000000fcf1eb70
x16: 00000000ca621b30 x17: 0000000015e93bdc
x18: 00000000fcf25e10 x19: 0000000000000000
x20: 0000000000000000 x21: 0000000000000000
x22: 00000000fcf28e90 x23: 00000000fefb49c0
x24: 0000000000000001 x25: 0000000000000000
x26: 0000000000000000 x27: 0000000000000000
x28: 00000000fcf28ed0 x29: 00000000fcf17220

Resetting CPU ...

"Synchronous Abort" handler, esr 0x96000044
ELR:     fef5295c
LR:      fef52930
x0 : 00001443000040c8 x1 : 000000000000eca8
x2 : 00000000ff440000 x3 : 0000000000000002
x4 : 00000000fcf16ef0 x5 : 0000000000000000
x6 : 00000000fcf248e3 x7 : 0000000000000064
x8 : 0000000000000003 x9 : 0000000000000008
x10: 0000000000000054 x11: 00000000fcf16d8c
x12: 00000000fcf1eb70 x13: 0000000000001e84
x14: 00000000fcf16e4c x15: 00000000fcf1eb70
x16: 00000000ca621b30 x17: 0000000015e93bdc
x18: 00000000fcf25e10 x19: 0000000000000000
x20: 0000000000000000 x21: 0000000000000000
x22: 00000000fcf28e90 x23: 00000000fefb49c0
x24: 0000000000000001 x25: 0000000000000000
x26: 0000000000000000 x27: 0000000000000000
x28: 00000000fcf28ed0 x29: 00000000fcf16f60

Resetting CPU ...

"Synchronous Abort" handler, esr 0x96000044
ELR:     fef5295c
LR:      fef52930
x0 : 00001443000040c8 x1 : 000000000000eca8
x2 : 00000000ff440000 x3 : 0000000000000002
x4 : 00000000fcf16c30 x5 : 0000000000000000
x6 : 00000000fcf248e3 x7 : 0000000000000064
x8 : 0000000000000003 x9 : 0000000000000008
x10: 0000000000000054 x11: 00000000fcf16acc
x12: 00000000fcf1eb70 x13: 0000000000001e84
x14: 00000000fcf16b8c x15: 00000000fcf1eb70
x16: 00000000ca621b30 x17: 0000000015e93bdc
x18: 00000000fcf25e10 x19: 0000000000000000
x20: 0000000000000000 x21: 0000000000000000
x22: 00000000fcf28e90 x23: 00000000fefb49c0
x24: 0000000000000001 x25: 0000000000000000
x26: 0000000000000000 x27: 0000000000000000
x28: 00000000fcf28ed0 x29: 00000000fcf16ca0

Resetting CPU ...

"Synchronous Abort" handler, esr 0x96000044
ELR:     fef5295c
LR:      fef52930
x0 : 00001443000040c8 x1 : 000000000000eca8
x2 : 00000000ff440000 x3 : 0000000000000002
x4 : 00000000fcf16970 x5 : 0000000000000000
x6 : 00000000fcf248e3 x7 : 0000000000000064
x8 : 0000000000000003 x9 : 0000000000000008
x10: 0000000000000054 x11: 00000000fcf1680c
x12: 00000000fcf1eb70 x13: 0000000000001e84
x14: 00000000fcf168cc x15: 00000000fcf1eb70
x16: 00000000ca621b30 x17: 0000000015e93bdc
x18: 00000000fcf25e10 x19: 0000000000000000
x20: 0000000000000000 x21: 0000000000000000
x22: 00000000fcf28e90 x23: 00000000fefb49c0
x24: 0000000000000001 x25: 0000000000000000
x26: 0000000000000000 x27: 0000000000000000
x28: 00000000fcf28ed0 x29: 00000000fcf169e0

Resetting CPU ...

"Synchronous Abort" handler, esr 0x96000044
ELR:     fef5295c
LR:      fef52930
x0 : 00001443000040c8 x1 : 000000000000eca8
x2 : 00000000ff440000 x3 : 0000000000000002
x4 : 00000000fcf166b0 x5 : 0000000000000000
x6 : 00000000fcf248e3 x7 : 0000000000000064
x8 : 0000000000000003 x9 : 0000000000000008
x10: 0000000000000054 x11: 00000000fcf1654c
x12: 00000000fcf1eb70 x13: 0000000000001e84
x14: 00000000fcf1660c x15: 00000000fcf1eb70
x16: 00000000ca621b30 x17: 0000000015e93bdc
x18: 00000000fcf25e10 x19: 0000000000000000
x20: 0000000000000000 x21: 0000000000000000
x22: 00000000fcf28e90 x23: 00000000fefb49c0
x24: 0000000000000001 x25: 0000000000000000
x26: 0000000000000000 x27: 0000000000000000
x28: 00000000fcf28ed0 x29: 00000000fcf16720

Resetting CPU ...

"Synchronous Abort" handler, esr 0x96000044
ELR:     fef5295c
LR:      fef52930
x0 : 00001443000040c8 x1 : 000000000000eca8
x2 : 00000000ff440000 x3 : 0000000000000002
x4 : 00000000fcf163f0 x5 : 0000000000000000
x6 : 00000000fcf248e3 x7 : 0000000000000064
x8 : 0000000000000003 x9 : 0000000000000008
x10: 0000000000000054 x11: 00000000fcf1628c
x12: 00000000fcf1eb70 x13: 0000000000001e84
x14: 00000000fcf1634c x15: 00000000fcf1eb70
x16: 00000000ca621b30 x17: 0000000015e93bdc
x18: 00000000fcf25e10 x19: 0000000000000000
x20: 0000000000000000 x21: 0000000000000000
x22: 00000000fcf28e90 x23: 00000000fefb49c0
x24: 0000000000000001 x25: 0000000000000000
x26: 0000000000000000 x27: 0000000000000000
x28: 00000000fcf28ed0 x29: 00000000fcf16460

Resetting CPU ...

"Synchronous Abort" handler, esr 0x96000044
ELR:     fef5295c
LR:      fef52930
x0 : 00001443000040c8 x1 : 000000000000eca8
x2 : 00000000ff440000 x3 : 0000000000000002
x4 : 00000000fcf16130 x5 : 0000000000000000
x6 : 00000000fcf248e3 x7 : 0000000000000064
x8 : 0000000000000003 x9 : 0000000000000008
x10: 0000000000000054 x11: 00000000fcf15fcc
x12: 00000000fcf1eb70 x13: 0000000000001e84
x14: 00000000fcf1608c x15: 00000000fcf1eb70
x16: 00000000ca621b30 x17: 0000000015e93bdc
x18: 00000000fcf25e10 x19: 0000000000000000
x20: 0000000000000000 x21: 0000000000000000
x22: 00000000fcf28e90 x23: 00000000fefb49c0
x24: 0000000000000001 x25: 0000000000000000
x26: 0000000000000000 x27: 0000000000000000
x28: 00000000fcf28ed0 x29: 00000000fcf161a0

Resetting CPU ...

"Synchronous Abort" handler, esr 0x96000044
ELR:     fef5295c
LR:      fef52930
x0 : 00001443000040c8 x1 : 000000000000eca8
x2 : 00000000ff440000 x3 : 0000000000000002
x4 : 00000000fcf15e70 x5 : 0000000000000000
x6 : 00000000fcf248e3 x7 : 0000000000000064
x8 : 0000000000000003 x9 : 0000000000000008
x10: 0000000000000054 x11: 00000000fcf15d0c
x12: 00000000fcf1eb70 x13: 0000000000001e84
x14: 00000000fcf15dcc x15: 00000000fcf1eb70
x16: 00000000ca621b30 x17: 0000000015e93bdc
x18: 00000000fcf25e10 x19: 0000000000000000
x20: 0000000000000000 x21: 0000000000000000
x22: 00000000fcf28e90 x23: 00000000fefb49c0
x24: 0000000000000001 x25: 0000000000000000
x26: 0000000000000000 x27: 0000000000000000
x28: 00000000fcf28ed0 x29: 00000000fcf15ee0

Resetting CPU ...

"Synchronous Abort" handler, esr 0x96000044
ELR:     fef5295c
LR:      fef52930
x0 : 00001443000040c8 x1 : 000000000000eca8
x2 : 00000000ff440000 x3 : 0000000000000002
x4 : 00000000fcf15bb0 x5 : 0000000000000000
x6 : 00000000fcf248e3 x7 : 0000000000000064
x8 : 0000000000000003 x9 : 0000000000000008
x10: 0000000000000054 x11: 00000000fcf15a4c
x12: 00000000fcf1eb70 x13: 0000000000001e84
x14: 00000000fcf15b0c x15: 00000000fcf1eb70
x16: 00000000ca621b30 x17: 0000000015e93bdc
x18: 00000000fcf25e10 x19: 0000000000000000
x20: 0000000000000000 x21: 0000000000000000
x22: 00000000fcf28e90 x23: 00000000fefb49c0
x24: 0000000000000001 x25: 0000000000000000
x26: 0000000000000000 x27: 0000000000000000
x28: 00000000fcf28ed0 x29: 00000000fcf15c20

Resetting CPU ...

"Synchronous Abort" handler, esr 0x96000044
ELR:     fef5295c
LR:      fef52930
x0 : 00001443000040c8 x1 : 000000000000eca8
x2 : 00000000ff440000 x3 : 0000000000000002
x4 : 00000000fcf158f0 x5 : 0000000000000000
x6 : 00000000fcf248e3 x7 : 0000000000000064
x8 : 0000000000000003 x9 : 0000000000000008
x10: 0000000000000054 x11: 00000000fcf1578c
x12: 00000000fcf1eb70 x13: 0000000000001e84
x14: 00000000fcf1584c x15: 00000000fcf1eb70
x16: 00000000ca621b30 x17: 0000000015e93bdc
x18: 00000000fcf25e10 x19: 0000000000000000
x20: 0000000000000000 x21: 0000000000000000
x22: 00000000fcf28e90 x23: 00000000fefb49c0
x24: 0000000000000001 x25: 0000000000000000
x26: 0000000000000000 x27: 0000000000000000
x28: 00000000fcf28ed0 x29: 00000000fcf15960

Resetting CPU ...

"Synchronous Abort" handler, esr 0x96000044
ELR:     fef5295c
LR:      fef52930
x0 : 00001443000040c8 x1 : 000000000000eca8
x2 : 00000000ff440000 x3 : 0000000000000002
x4 : 00000000fcf15630 x5 : 0000000000000000
x6 : 00000000fcf248e3 x7 : 0000000000000064
x8 : 0000000000000003 x9 : 0000000000000008
x10: 0000000000000054 x11: 00000000fcf154cc
x12: 00000000fcf1eb70 x13: 0000000000001e84
x14: 00000000fcf1558c x15: 00000000fcf1eb70
x16: 00000000ca621b30 x17: 0000000015e93bdc
x18: 00000000fcf25e10 x19: 0000000000000000
x20: 0000000000000000 x21: 0000000000000000
x22: 00000000fcf28e90 x23: 00000000fefb49c0
x24: 0000000000000001 x25: 0000000000000000
x26: 0000000000000000 x27: 0000000000000000
x28: 00000000fcf28ed0 x29: 00000000fcf156a0

Resetting CPU ...

"Synchronous Abort" handler, esr 0x96000044
ELR:     fef5295c
LR:      fef52930
x0 : 00001443000040c8 x1 : 000000000000eca8
x2 : 00000000ff440000 x3 : 0000000000000002
x4 : 00000000fcf15370 x5 : 0000000000000000
x6 : 00000000fcf248e3 x7 : 0000000000000064
x8 : 0000000000000003 x9 : 0000000000000008
x10: 0000000000000054 x11: 00000000fcf1520c
x12: 00000000fcf1eb70 x13: 0000000000001e84
x14: 00000000fcf152cc x15: 00000000fcf1eb70
x16: 00000000ca621b30 x17: 0000000015e93bdc
x18: 00000000fcf25e10 x19: 0000000000000000
x20: 0000000000000000 x21: 0000000000000000
x22: 00000000fcf28e90 x23: 00000000fefb49c0
x24: 0000000000000001 x25: 0000000000000000
x26: 0000000000000000 x27: 0000000000000000
x28: 00000000fcf28ed0 x29: 00000000fcf153e0

Resetting CPU ...

"Synchronous Abort" handler, esr 0x96000044
ELR:     fef5295c
LR:      fef52930
x0 : 00001443000040c8 x1 : 000000000000eca8
x2 : 00000000ff440000 x3 : 0000000000000002
x4 : 00000000fcf150b0 x5 : 0000000000000000
x6 : 00000000fcf248e3 x7 : 0000000000000064
x8 : 0000000000000003 x9 : 0000000000000008
x10: 0000000000000054 x11: 00000000fcf14f4c
x12: 00000000fcf1eb70 x13: 0000000000001e84
x14: 00000000fcf1500c x15: 00000000fcf1eb70
x16: 00000000ca621b30 x17: 0000000015e93bdc
x18: 00000000fcf25e10 x19: 0000000000000000
x20: 0000000000000000 x21: 0000000000000000
x22: 00000000fcf28e90 x23: 00000000fefb49c0
x24: 0000000000000001 x25: 0000000000000000
x26: 0000000000000000 x27: 0000000000000000
x28: 00000000fcf28ed0 x29: 00000000fcf15120

Resetting CPU ...

"Synchronous Abort" handler, esr 0x96000044
ELR:     fef5295c
LR:      fef52930
x0 : 00001443000040c8 x1 : 000000000000eca8
x2 : 00000000ff440000 x3 : 0000000000000002
x4 : 00000000fcf14df0 x5 : 0000000000000000
x6 : 00000000fcf248e3 x7 : 0000000000000064
x8 : 0000000000000003 x9 : 0000000000000008
x10: 0000000000000054 x11: 00000000fcf14c8c
x12: 00000000fcf1eb70 x13: 0000000000001e84
x14: 00000000fcf14d4c x15: 00000000fcf1eb70
x16: 00000000ca621b30 x17: 0000000015e93bdc
x18: 00000000fcf25e10 x19: 0000000000000000
x20: 0000000000000000 x21: 0000000000000000
x22: 00000000fcf28e90 x23: 00000000fefb49c0
x24: 0000000000000001 x25: 0000000000000000
x26: 0000000000000000 x27: 0000000000000000
x28: 00000000fcf28ed0 x29: 00000000fcf14e60

Resetting CPU ...

"Synchronous Abort" handler, esr 0x96000044
ELR:     fef5295c
LR:      fef52930
x0 : 00001443000040c8 x1 : 000000000000eca8
x2 : 00000000ff440000 x3 : 0000000000000002
x4 : 00000000fcf14b30 x5 : 0000000000000000
x6 : 00000000fcf248e3 x7 : 0000000000000064
x8 : 0000000000000003 x9 : 0000000000000008
x10: 0000000000000054 x11: 00000000fcf149cc
x12: 00000000fcf1eb70 x13: 0000000000001e84
x14: 00000000fcf14a8c x15: 00000000fcf1eb70
x16: 00000000ca621b30 x17: 0000000015e93bdc
x18: 00000000fcf25e10 x19: 0000000000000000
x20: 0000000000000000 x21: 0000000000000000
x22: 00000000fcf28e90 x23: 00000000fefb49c0
x24: 0000000000000001 x25: 0000000000000000
x26: 0000000000000000 x27: 0000000000000000
x28: 00000000fcf28ed0 x29: 00000000fcf14ba0

Resetting CPU ...

"Synchronous Abort" handler, esr 0x96000044
ELR:     fef5295c
LR:      fef52930
x0 : 00001443000040c8 x1 : 000000000000eca8
x2 : 00000000ff440000 x3 : 0000000000000002
x4 : 00000000fcf14870 x5 : 0000000000000000
x6 : 00000000fcf248e3 x7 : 0000000000000064
x8 : 0000000000000003 x9 : 0000000000000008
x10: 0000000000000054 x11: 00000000fcf1470c
x12: 00000000fcf1eb70 x13: 0000000000001e84
x14: 00000000fcf147cc x15: 00000000fcf1eb70
x16: 00000000ca621b30 x17: 0000000015e93bdc
x18: 00000000fcf25e10 x19: 0000000000000000
x20: 0000000000000000 x21: 0000000000000000
x22: 00000000fcf28e90 x23: 00000000fefb49c0
x24: 0000000000000001 x25: 0000000000000000
x26: 0000000000000000 x27: 0000000000000000
x28: 00000000fcf28ed0 x29: 00000000fcf148e0

Resetting CPU ...

"Synchronous Abort" handler, esr 0x96000044
ELR:     fef5295c
LR:      fef52930
x0 : 00001443000040c8 x1 : 000000000000eca8
x2 : 00000000ff440000 x3 : 0000000000000002
x4 : 00000000fcf145b0 x5 : 0000000000000000
x6 : 00000000fcf248e3 x7 : 0000000000000064
x8 : 0000000000000003 x9 : 0000000000000008
x10: 0000000000000054 x11: 00000000fcf1444c
x12: 00000000fcf1eb70 x13: 0000000000001e84
x14: 00000000fcf1450c x15: 00000000fcf1eb70
x16: 00000000ca621b30 x17: 0000000015e93bdc
x18: 00000000fcf25e10 x19: 0000000000000000
x20: 0000000000000000 x21: 0000000000000000
x22: 00000000fcf28e90 x23: 00000000fefb49c0
x24: 0000000000000001 x25: 0000000000000000
x26: 0000000000000000 x27: 0000000000000000
x28: 00000000fcf28ed0 x29: 00000000fcf14620

Resetting CPU ...

"Synchronous Abort" handler, esr 0x96000044
ELR:     fef5295c
LR:      fef52930
x0 : 00001443000040c8 x1 : 000000000000eca8
x2 : 00000000ff440000 x3 : 0000000000000002
x4 : 00000000fcf142f0 x5 : 0000000000000000
x6 : 00000000fcf248e3 x7 : 0000000000000064
x8 : 0000000000000003 x9 : 0000000000000008
x10: 0000000000000054 x11: 00000000fcf1418c
x12: 00000000fcf1eb70 x13: 0000000000001e84
x14: 00000000fcf1424c x15: 00000000fcf1eb70
x16: 00000000ca621b30 x17: 0000000015e93bdc
x18: 00000000fcf25e10 x19: 0000000000000000
x20: 0000000000000000 x21: 0000000000000000
x22: 00000000fcf28e90 x23: 00000000fefb49c0
x24: 0000000000000001 x25: 0000000000000000
x26: 0000000000000000 x27: 0000000000000000
x28: 00000000fcf28ed0 x29: 00000000fcf14360

Resetting CPU ...

"Synchronous Abort" handler, esr 0x96000044
ELR:     fef5295c
LR:      fef52930
x0 : 00001443000040c8 x1 : 000000000000eca8
x2 : 00000000ff440000 x3 : 0000000000000002
x4 : 00000000fcf14030 x5 : 0000000000000000
x6 : 00000000fcf248e3 x7 : 0000000000000064
x8 : 0000000000000003 x9 : 0000000000000008
x10: 0000000000000054 x11: 00000000fcf13ecc
x12: 00000000fcf1eb70 x13: 0000000000001e84
x14: 00000000fcf13f8c x15: 00000000fcf1eb70
x16: 00000000ca621b30 x17: 0000000015e93bdc
x18: 00000000fcf25e10 x19: 0000000000000000
x20: 0000000000000000 x21: 0000000000000000
x22: 00000000fcf28e90 x23: 00000000fefb49c0
x24: 0000000000000001 x25: 0000000000000000
x26: 0000000000000000 x27: 0000000000000000
x28: 00000000fcf28ed0 x29: 00000000fcf140a0

Resetting CPU ...

"Synchronous Abort" handler, esr 0x96000044
ELR:     fef5295c
LR:      fef52930
x0 : 00001443000040c8 x1 : 000000000000eca8
x2 : 00000000ff440000 x3 : 0000000000000002
x4 : 00000000fcf13d70 x5 : 0000000000000000
x6 : 00000000fcf248e3 x7 : 0000000000000064
x8 : 0000000000000003 x9 : 0000000000000008
x10: 0000000000000054 x11: 00000000fcf13c0c
x12: 00000000fcf1eb70 x13: 0000000000001e84
x14: 00000000fcf13ccc x15: 00000000fcf1eb70
x16: 00000000ca621b30 x17: 0000000015e93bdc
x18: 00000000fcf25e10 x19: 0000000000000000
x20: 0000000000000000 x21: 0000000000000000
x22: 00000000fcf28e90 x23: 00000000fefb49c0
x24: 0000000000000001 x25: 0000000000000000
x26: 0000000000000000 x27: 0000000000000000
x28: 00000000fcf28ed0 x29: 00000000fcf13de0

Resetting CPU ...

"Synchronous Abort" handler, esr 0x96000044
ELR:     fef5295c
LR:      fef52930
x0 : 00001443000040c8 x1 : 000000000000eca8
x2 : 00000000ff440000 x3 : 0000000000000002
x4 : 00000000fcf13ab0 x5 : 0000000000000000
x6 : 00000000fcf248e3 x7 : 0000000000000064
x8 : 0000000000000003 x9 : 0000000000000008
x10: 0000000000000054 x11: 00000000fcf1394c
x12: 00000000fcf1eb70 x13: 0000000000001e84
x14: 00000000fcf13a0c x15: 00000000fcf1eb70
x16: 00000000ca621b30 x17: 0000000015e93bdc
x18: 00000000fcf25e10 x19: 0000000000000000
x20: 0000000000000000 x21: 0000000000000000
x22: 00000000fcf28e90 x23: 00000000fefb49c0
x24: 0000000000000001 x25: 0000000000000000
x26: 0000000000000000 x27: 0000000000000000
x28: 00000000fcf28ed0 x29: 00000000fcf13b20

Resetting CPU ...

"Synchronous Abort" handler, esr 0x96000044
ELR:     fef5295c
LR:      fef52930
x0 : 00001443000040c8 x1 : 000000000000eca8
x2 : 00000000ff440000 x3 : 0000000000000002
x4 : 00000000fcf137f0 x5 : 0000000000000000
x6 : 00000000fcf248e3 x7 : 0000000000000064
x8 : 0000000000000003 x9 : 0000000000000008
x10: 0000000000000054 x11: 00000000fcf1368c
x12: 00000000fcf1eb70 x13: 0000000000001e84
x14: 00000000fcf1374c x15: 00000000fcf1eb70
x16: 00000000ca621b30 x17: 0000000015e93bdc
x18: 00000000fcf25e10 x19: 0000000000000000
x20: 0000000000000000 x21: 0000000000000000
x22: 00000000fcf28e90 x23: 00000000fefb49c0
x24: 0000000000000001 x25: 0000000000000000
x26: 0000000000000000 x27: 0000000000000000
x28: 00000000fcf28ed0 x29: 00000000fcf13860

Resetting CPU ...

"Synchronous Abort" handler, esr 0x96000044
ELR:     fef5295c
LR:      fef52930
x0 : 00001443000040c8 x1 : 000000000000eca8
x2 : 00000000ff440000 x3 : 0000000000000002
x4 : 00000000fcf13530 x5 : 0000000000000000
x6 : 00000000fcf248e3 x7 : 0000000000000064
x8 : 0000000000000003 x9 : 0000000000000008
x10: 0000000000000054 x11: 00000000fcf133cc
x12: 00000000fcf1eb70 x13: 0000000000001e84
x14: 00000000fcf1348c x15: 00000000fcf1eb70
x16: 00000000ca621b30 x17: 0000000015e93bdc
x18: 00000000fcf25e10 x19: 0000000000000000
x20: 0000000000000000 x21: 0000000000000000
x22: 00000000fcf28e90 x23: 00000000fefb49c0
x24: 0000000000000001 x25: 0000000000000000
x26: 0000000000000000 x27: 0000000000000000
x28: 00000000fcf28ed0 x29: 00000000fcf135a0

Resetting CPU ...

"Synchronous Abort" handler, esr 0x96000044
ELR:     fef5295c
LR:      fef52930
x0 : 00001443000040c8 x1 : 000000000000eca8
x2 : 00000000ff440000 x3 : 0000000000000002
x4 : 00000000fcf13270 x5 : 0000000000000000
x6 : 00000000fcf248e3 x7 : 0000000000000064
x8 : 0000000000000003 x9 : 0000000000000008
x10: 0000000000000054 x11: 00000000fcf1310c
x12: 00000000fcf1eb70 x13: 0000000000001e84
x14: 00000000fcf131cc x15: 00000000fcf1eb70
x16: 00000000ca621b30 x17: 0000000015e93bdc
x18: 00000000fcf25e10 x19: 0000000000000000
x20: 0000000000000000 x21: 0000000000000000
x22: 00000000fcf28e90 x23: 00000000fefb49c0
x24: 0000000000000001 x25: 0000000000000000
x26: 0000000000000000 x27: 0000000000000000
x28: 00000000fcf28ed0 x29: 00000000fcf132e0

Resetting CPU ...

"Synchronous Abort" handler, esr 0x96000044
ELR:     fef5295c
LR:      fef52930
x0 : 00001443000040c8 x1 : 000000000000eca8
x2 : 00000000ff440000 x3 : 0000000000000002
x4 : 00000000fcf12fb0 x5 : 0000000000000000
x6 : 00000000fcf248e3 x7 : 0000000000000064
x8 : 0000000000000003 x9 : 0000000000000008
x10: 0000000000000054 x11: 00000000fcf12e4c
x12: 00000000fcf1eb70 x13: 0000000000001e84
x14: 00000000fcf12f0c x15: 00000000fcf1eb70
x16: 00000000ca621b30 x17: 0000000015e93bdc
x18: 00000000fcf25e10 x19: 0000000000000000
x20: 0000000000000000 x21: 0000000000000000
x22: 00000000fcf28e90 x23: 00000000fefb49c0
x24: 0000000000000001 x25: 0000000000000000
x26: 0000000000000000 x27: 0000000000000000
x28: 00000000fcf28ed0 x29: 00000000fcf13020

Resetting CPU ...

"Synchronous Abort" handler, esr 0x96000044
ELR:     fef5295c
LR:      fef52930
x0 : 00001443000040c8 x1 : 000000000000eca8
x2 : 00000000ff440000 x3 : 0000000000000002
x4 : 00000000fcf12cf0 x5 : 0000000000000000
x6 : 00000000fcf248e3 x7 : 0000000000000064
x8 : 0000000000000003 x9 : 0000000000000008
x10: 0000000000000054 x11: 00000000fcf12b8c
x12: 00000000fcf1eb70 x13: 0000000000001e84
x14: 00000000fcf12c4c x15: 00000000fcf1eb70
x16: 00000000ca621b30 x17: 0000000015e93bdc
x18: 00000000fcf25e10 x19: 0000000000000000
x20: 0000000000000000 x21: 0000000000000000
x22: 00000000fcf28e90 x23: 00000000fefb49c0
x24: 0000000000000001 x25: 0000000000000000
x26: 0000000000000000 x27: 0000000000000000
x28: 00000000fcf28ed0 x29: 00000000fcf12d60

Resetting CPU ...

"Synchronous Abort" handler, esr 0x96000044
ELR:     fef5295c
LR:      fef52930
x0 : 00001443000040c8 x1 : 000000000000eca8
x2 : 00000000ff440000 x3 : 0000000000000002
x4 : 00000000fcf12a30 x5 : 0000000000000000
x6 : 00000000fcf248e3 x7 : 0000000000000064
x8 : 0000000000000003 x9 : 0000000000000008
x10: 0000000000000054 x11: 00000000fcf128cc
x12: 00000000fcf1eb70 x13: 0000000000001e84
x14: 00000000fcf1298c x15: 00000000fcf1eb70
x16: 00000000ca621b30 x17: 0000000015e93bdc
x18: 00000000fcf25e10 x19: 0000000000000000
x20: 0000000000000000 x21: 0000000000000000
x22: 00000000fcf28e90 x23: 00000000fefb49c0
x24: 0000000000000001 x25: 0000000000000000
x26: 0000000000000000 x27: 0000000000000000
x28: 00000000fcf28ed0 x29: 00000000fcf12aa0

Resetting CPU ...

"Synchronous Abort" handler, esr 0x96000044
ELR:     fef5295c
LR:      fef52930
x0 : 00001443000040c8 x1 : 000000000000eca8
x2 : 00000000ff440000 x3 : 0000000000000002
x4 : 00000000fcf12770 x5 : 0000000000000000
x6 : 00000000fcf248e3 x7 : 0000000000000064
x8 : 0000000000000003 x9 : 0000000000000008
x10: 0000000000000054 x11: 00000000fcf1260c
x12: 00000000fcf1eb70 x13: 0000000000001e84
x14: 00000000fcf126cc x15: 00000000fcf1eb70
x16: 00000000ca621b30 x17: 0000000015e93bdc
x18: 00000000fcf25e10 x19: 0000000000000000
x20: 0000000000000000 x21: 0000000000000000
x22: 00000000fcf28e90 x23: 00000000fefb49c0
x24: 0000000000000001 x25: 0000000000000000
x26: 0000000000000000 x27: 0000000000000000
x28: 00000000fcf28ed0 x29: 00000000fcf127e0

Resetting CPU ...

"Synchronous Abort" handler, esr 0x96000044
ELR:     fef5295c
LR:      fef52930
x0 : 00001443000040c8 x1 : 000000000000eca8
x2 : 00000000ff440000 x3 : 0000000000000002
x4 : 00000000fcf124b0 x5 : 0000000000000000
x6 : 00000000fcf248e3 x7 : 0000000000000064
x8 : 0000000000000003 x9 : 0000000000000008
x10: 0000000000000054 x11: 00000000fcf1234c
x12: 00000000fcf1eb70 x13: 0000000000001e84
x14: 00000000fcf1240c x15: 00000000fcf1eb70
x16: 00000000ca621b30 x17: 0000000015e93bdc
x18: 00000000fcf25e10 x19: 0000000000000000
x20: 0000000000000000 x21: 0000000000000000
x22: 00000000fcf28e90 x23: 00000000fefb49c0
x24: 0000000000000001 x25: 0000000000000000
x26: 0000000000000000 x27: 0000000000000000
x28: 00000000fcf28ed0 x29: 00000000fcf12520

Resetting CPU ...

"Synchronous Abort" handler, esr 0x96000044
ELR:     fef5295c
LR:      fef52930
x0 : 00001443000040c8 x1 : 000000000000eca8
x2 : 00000000ff440000 x3 : 0000000000000002
x4 : 00000000fcf121f0 x5 : 0000000000000000
x6 : 00000000fcf248e3 x7 : 0000000000000064
x8 : 0000000000000003 x9 : 0000000000000008
x10: 0000000000000054 x11: 00000000fcf1208c
x12: 00000000fcf1eb70 x13: 0000000000001e84
x14: 00000000fcf1214c x15: 00000000fcf1eb70
x16: 00000000ca621b30 x17: 0000000015e93bdc
x18: 00000000fcf25e10 x19: 0000000000000000
x20: 0000000000000000 x21: 0000000000000000
x22: 00000000fcf28e90 x23: 00000000fefb49c0
x24: 0000000000000001 x25: 0000000000000000
x26: 0000000000000000 x27: 0000000000000000
x28: 00000000fcf28ed0 x29: 00000000fcf12260

Resetting CPU ...

"Synchronous Abort" handler, esr 0x96000044
ELR:     fef5295c
LR:      fef52930
x0 : 00001443000040c8 x1 : 000000000000eca8
x2 : 00000000ff440000 x3 : 0000000000000002
x4 : 00000000fcf11f30 x5 : 0000000000000000
x6 : 00000000fcf248e3 x7 : 0000000000000064
x8 : 0000000000000003 x9 : 0000000000000008
x10: 0000000000000054 x11: 00000000fcf11dcc
x12: 00000000fcf1eb70 x13: 0000000000001e84
x14: 00000000fcf11e8c x15: 00000000fcf1eb70
x16: 00000000ca621b30 x17: 0000000015e93bdc
x18: 00000000fcf25e10 x19: 0000000000000000
x20: 0000000000000000 x21: 0000000000000000
x22: 00000000fcf28e90 x23: 00000000fefb49c0
x24: 0000000000000001 x25: 0000000000000000
x26: 0000000000000000 x27: 0000000000000000
x28: 00000000fcf28ed0 x29: 00000000fcf11fa0

Resetting CPU ...

"Synchronous Abort" handler, esr 0x96000044
ELR:     fef5295c
LR:      fef52930
x0 : 00001443000040c8 x1 : 000000000000eca8
x2 : 00000000ff440000 x3 : 0000000000000002
x4 : 00000000fcf11c70 x5 : 0000000000000000
x6 : 00000000fcf248e3 x7 : 0000000000000064
x8 : 0000000000000003 x9 : 0000000000000008
x10: 0000000000000054 x11: 00000000fcf11b0c
x12: 00000000fcf1eb70 x13: 0000000000001e84
x14: 00000000fcf11bcc x15: 00000000fcf1eb70
x16: 00000000ca621b30 x17: 0000000015e93bdc
x18: 00000000fcf25e10 x19: 0000000000000000
x20: 0000000000000000 x21: 0000000000000000
x22: 00000000fcf28e90 x23: 00000000fefb49c0
x24: 0000000000000001 x25: 0000000000000000
x26: 0000000000000000 x27: 0000000000000000
x28: 00000000fcf28ed0 x29: 00000000fcf11ce0

Resetting CPU ...

"Synchronous Abort" handler, esr 0x96000044
ELR:     fef5295c
LR:      fef52930
x0 : 00001443000040c8 x1 : 000000000000eca8
x2 : 00000000ff440000 x3 : 0000000000000002
x4 : 00000000fcf119b0 x5 : 0000000000000000
x6 : 00000000fcf248e3 x7 : 0000000000000064
x8 : 0000000000000003 x9 : 0000000000000008
x10: 0000000000000054 x11: 00000000fcf1184c
x12: 00000000fcf1eb70 x13: 0000000000001e84
x14: 00000000fcf1190c x15: 00000000fcf1eb70
x16: 00000000ca621b30 x17: 0000000015e93bdc
x18: 00000000fcf25e10 x19: 0000000000000000
x20: 0000000000000000 x21: 0000000000000000
x22: 00000000fcf28e90 x23: 00000000fefb49c0
x24: 0000000000000001 x25: 0000000000000000
x26: 0000000000000000 x27: 0000000000000000
x28: 00000000fcf28ed0 x29: 00000000fcf11a20

Resetting CPU ...

"Synchronous Abort" handler, esr 0x96000044
ELR:     fef5295c
LR:      fef52930
x0 : 00001443000040c8 x1 : 000000000000eca8
x2 : 00000000ff440000 x3 : 0000000000000002
x4 : 00000000fcf116f0 x5 : 0000000000000000
x6 : 00000000fcf248e3 x7 : 0000000000000064
x8 : 0000000000000003 x9 : 0000000000000008
x10: 0000000000000054 x11: 00000000fcf1158c
x12: 00000000fcf1eb70 x13: 0000000000001e84
x14: 00000000fcf1164c x15: 00000000fcf1eb70
x16: 00000000ca621b30 x17: 0000000015e93bdc
x18: 00000000fcf25e10 x19: 0000000000000000
x20: 0000000000000000 x21: 0000000000000000
x22: 00000000fcf28e90 x23: 00000000fefb49c0
x24: 0000000000000001 x25: 0000000000000000
x26: 0000000000000000 x27: 0000000000000000
x28: 00000000fcf28ed0 x29: 00000000fcf11760

Resetting CPU ...

"Synchronous Abort" handler, esr 0x96000044
ELR:     fef5295c
LR:      fef52930
x0 : 00001443000040c8 x1 : 000000000000eca8
x2 : 00000000ff440000 x3 : 0000000000000002
x4 : 00000000fcf11430 x5 : 0000000000000000
x6 : 00000000fcf248e3 x7 : 0000000000000064
x8 : 0000000000000003 x9 : 0000000000000008
x10: 0000000000000054 x11: 00000000fcf112cc
x12: 00000000fcf1eb70 x13: 0000000000001e84
x14: 00000000fcf1138c x15: 00000000fcf1eb70
x16: 00000000ca621b30 x17: 0000000015e93bdc
x18: 00000000fcf25e10 x19: 0000000000000000
x20: 0000000000000000 x21: 0000000000000000
x22: 00000000fcf28e90 x23: 00000000fefb49c0
x24: 0000000000000001 x25: 0000000000000000
x26: 0000000000000000 x27: 0000000000000000
x28: 00000000fcf28ed0 x29: 00000000fcf114a0

Resetting CPU ...

"Synchronous Abort" handler, esr 0x96000044
ELR:     fef5295c
LR:      fef52930
